Time [s],Packet ID,MOSI,MISO
-0.000016460000000,0,'135',}
-0.000012760000000,0,'229','230'
-0.000008220000000,0,@,' '
-0.000003700000000,0,'0','0'
0.000021240000000,1,'129',}
0.000024920000000,1,'12','0'
0.000057500000000,2,'184',}
0.000061200000000,2,'5','5'
0.000065720000000,2,'0','0'
0.000070260000000,2,'0','0'
0.000074780000000,2,'0','0'
0.000079320000000,2,'4','4'
0.000090400000000,3,'128',}
0.000094100000000,3,},}
0.000098640000000,3,(,}
0.000103160000000,3,'12',}
0.000107700000000,3,'2',}
0.000730760000000,4,'135','179'
0.000734460000000,4,'225','229'
0.000738980000000,4,'224',@
0.000749460000000,5,'174','179'
0.000753160000000,5,'136','144'
0.000757680000000,5,},'133'
0.000762220000000,5,(,'133'
0.000766740000000,5,'12','133'
0.000771260000000,5,'0','0'
0.000775800000000,5,'0','0'
0.000780320000000,5,'0','0'
0.000784840000000,5,'0','0'
0.000789380000000,5,'0','0'
0.000793900000000,5,'0','0'
0.000798420000000,5,'7','5'
0.000822720000000,6,'129',*
0.000826420000000,6,'144','12'
0.000836880000000,7,'137',}
0.000840580000000,7,'0','0'
0.000851040000000,8,'165',}
0.000854740000000,8,'134','6'
0.009823500000000,9,'129',}
0.009827200000000,9,'0','144'
0.009831720000000,9,'0','0'
0.009836240000000,9,'0','0'
0.009840780000000,9,'210','210'
0.009845300000000,9,'14','14'
0.009849840000000,9,E,E
0.009854360000000,9,'229','225'
0.009858900000000,9,@,'224'
0.009863420000000,9,'0','0'
0.009873900000000,10,'165',}
0.009877600000000,10,'6','134'
0.009888080000000,11,'174',}
0.009892020000000,12,!,'16'
0.009896560000000,12,'11','250'
0.009901080000000,13,'11',P
0.009906800000000,14,@,'0'
0.009911340000000,14,'0','0'
0.009915860000000,14,'0','0'
0.009920400000000,14,'0','0'
0.009924920000000,14,'0','0'
0.009929460000000,14,'0','0'
0.009934000000000,14,'1','1'
0.029840460000000,15,'135',}
0.029844160000000,15,'229','225'
0.029848680000000,15,@,'224'
0.029853200000000,15,'0','0'
0.029878140000000,16,'129',}
0.029881840000000,16,'12','0'
0.029914400000000,17,'184',}
0.029918100000000,17,'5','5'
0.029922620000000,17,'0','0'
0.029927160000000,17,'0','0'
0.029931700000000,17,'0','0'
0.029936220000000,17,'4','4'
0.029947320000000,18,'128',}
0.029951020000000,18,},}
0.029955540000000,18,(,}
0.029960080000000,18,'12',}
0.029964620000000,18,'2',}
0.030587620000000,19,'135','179'
0.030591320000000,19,'225','229'
0.030595840000000,19,'224',@
0.030606340000000,20,'174','179'
0.030610040000000,20,'136','144'
0.030614560000000,20,},'133'
0.030619100000000,20,(,'133'
0.030623640000000,20,'12','133'
0.030628160000000,20,'0','0'
0.030632700000000,20,'0','0'
0.030637220000000,20,'0','0'
0.030641760000000,20,'0','0'
0.030646300000000,20,'0','0'
0.030650820000000,20,'0','0'
0.030655360000000,20,'7','5'
0.030679680000000,21,'129',*
0.030683380000000,21,'144','12'
0.030693880000000,22,'137',}
0.030697580000000,22,'0','0'
0.030708080000000,23,'165',}
0.030711760000000,23,'134','6'
0.039812700000000,24,'129',}
0.039816400000000,24,'0','144'
0.039820920000000,24,'0','0'
0.039825440000000,24,'0','0'
0.039829980000000,24,'210','210'
0.039834500000000,24,'14','14'
0.039839020000000,24,E,E
0.039843540000000,24,'229','225'
0.039848080000000,24,@,'224'
0.039852600000000,24,'0','0'
0.039863080000000,25,'165',}
0.039866780000000,25,'6','134'
0.039877960000000,26,t,'236'
0.039885700000000,27,'11','250'
0.039890220000000,27,'11',P
0.039895940000000,28,@,'0'
0.039900480000000,28,'0','0'
0.039905000000000,28,'0','0'
0.039909520000000,28,'0','0'
0.039914040000000,28,'0','0'
0.039918580000000,28,'0','0'
0.039923100000000,28,'1','1'
0.069838700000000,29,'135',}
0.069842400000000,29,'229','225'
0.069846940000000,29,@,'224'
0.069851460000000,29,'0','0'
0.069876400000000,30,'129',}
0.069880080000000,30,'12','0'
0.069912660000000,31,'184',}
0.069916360000000,31,'5','5'
0.069920900000000,31,'0','0'
0.069925420000000,31,'0','0'
0.069929960000000,31,'0','0'
0.069934480000000,31,'4','4'
0.069945580000000,32,'128',}
0.069949280000000,32,},}
0.069953820000000,32,(,}
0.069958340000000,32,'12',}
0.069962860000000,32,'2',}
0.070585780000000,33,'135','179'
0.070589480000000,33,'225','229'
0.070594000000000,33,'224',@
0.070604480000000,34,'174','179'
0.070608180000000,34,'136','144'
0.070612700000000,34,},'133'
0.070617220000000,34,(,'133'
0.070621760000000,34,'12','133'
0.070626280000000,34,'0','0'
0.070630800000000,34,'0','0'
0.070635340000000,34,'0','0'
0.070639860000000,34,'0','0'
0.070644380000000,34,'0','0'
0.070648920000000,34,'0','0'
0.070653440000000,34,'7','5'
0.070679280000000,35,'129',*
0.070682980000000,35,'144','12'
0.070693480000000,36,'137',}
0.070697180000000,36,'0','0'
0.070707660000000,37,'165',}
0.070711360000000,37,'134','6'
0.079816300000000,38,'129',}
0.079820000000000,38,'0','144'
0.079824520000000,38,'0','0'
0.079829060000000,38,'0','0'
0.079833580000000,38,'210','210'
0.079838100000000,38,'14','14'
0.079842620000000,38,E,E
0.079847160000000,38,'229','225'
0.079851680000000,38,@,'224'
0.079856200000000,38,'0','0'
0.079866680000000,39,'165',}
0.079870380000000,39,'6','134'
0.079885500000000,40,'8','135'
0.079890500000000,41,a,J
0.079898360000000,42,\n,'24'
0.079902900000000,42,'0','0'
0.079907420000000,42,'0','0'
0.079911960000000,42,'0','0'
0.079916500000000,42,'0','0'
0.079921020000000,42,'0','0'
0.079925560000000,42,'0','0'
0.579877980000000,,'135',}
0.579881660000000,,'227','225'
0.579886200000000,,@,'224'
0.579890720000000,,'0','0'
