Time [s],Packet ID,MOSI,MISO
-0.000008340000000,0,'135',}
-0.000004640000000,0,'228','226'
0.000000120000000,1,'0',@
0.000029280000000,2,'129',}
0.000032980000000,2,'12','0'
0.000065480000000,3,'184',}
0.000069180000000,3,'5','5'
0.000073700000000,3,'0','0'
0.000078240000000,3,'0','0'
0.000082760000000,3,'0','0'
0.000087280000000,3,'4','4'
0.000098360000000,4,'128',}
0.000102060000000,4,},}
0.000106600000000,4,(,}
0.000111120000000,4,'12',}
0.000115660000000,4,'2',}
0.000738600000000,5,'135','179'
0.000742300000000,5,'226','228'
0.000746840000000,5,'128','128'
0.000757320000000,6,'174','179'
0.000761020000000,6,'136','144'
0.000765540000000,6,},'133'
0.000770080000000,6,(,'133'
0.000774600000000,6,'12','133'
0.000779140000000,6,'0','0'
0.000783660000000,6,'0','0'
0.000788200000000,6,'0','0'
0.000792720000000,6,'0','0'
0.000797260000000,6,'0','0'
0.000801800000000,6,'0','0'
0.000806320000000,6,'7','5'
0.000829100000000,7,'129',*
0.000832800000000,7,'144','12'
0.000843280000000,8,'137',}
0.000846980000000,8,'0','0'
0.000857460000000,9,'165',}
0.000861160000000,9,'134','6'
0.009802800000000,10,'129',}
0.009806500000000,10,'0','144'
0.009811020000000,10,'0','0'
0.009815540000000,10,'0','0'
0.009820060000000,10,'210','210'
0.009824600000000,10,'14','14'
0.009829120000000,10,E,E
0.009833640000000,10,'228','226'
0.009838160000000,10,'128','128'
0.009842680000000,10,'0','0'
0.009853160000000,11,'165',}
0.009856840000000,11,'6','134'
0.009867320000000,12,'174',}
0.009871020000000,12,'144','136'
0.009875780000000,13,'11','250'
0.009880320000000,13,'11',P
0.009884840000000,13,\n,'24'
0.009889380000000,13,'0','0'
0.009893900000000,13,'0','0'
0.009898440000000,13,'0','0'
0.009902960000000,13,'0','0'
0.009907500000000,13,'0','0'
0.009912020000000,13,'0','0'
0.009992740000000,14,'135',}
0.009996440000000,14,'228','226'
0.010000960000000,14,'128','128'
0.010005500000000,14,'0','0'
0.010030420000000,15,'129',}
0.010034120000000,15,'12','0'
0.010066680000000,16,'184',}
0.010070380000000,16,'5','5'
0.010074920000000,16,'0','0'
0.010079440000000,16,'0','0'
0.010083980000000,16,'0','0'
0.010088520000000,16,'4','4'
0.010099600000000,17,'128',}
0.010103300000000,17,},}
0.010107840000000,17,(,}
0.010112360000000,17,'12',}
0.010116880000000,17,'2',}
0.010739800000000,18,'135',*
0.010743480000000,18,'226','228'
0.010748020000000,18,'128','128'
0.010758500000000,19,'174',*
0.010762200000000,19,'136','144'
0.010766740000000,19,},'133'
0.010771260000000,19,(,'133'
0.010775800000000,19,'12','133'
0.010780320000000,19,'0','0'
0.010784840000000,19,'0','0'
0.010789380000000,19,'0','0'
0.010793900000000,19,'0','0'
0.010798440000000,19,'0','0'
0.010802960000000,19,'0','0'
0.010807500000000,19,'7','5'
0.010820960000000,20,'129',*
0.010824660000000,20,'144','12'
0.010836340000000,21,' ','160'
0.010849340000000,22,'165',}
0.010853040000000,22,'134','6'
0.019799620000000,23,'129',}
0.019803320000000,23,'0','144'
0.019807840000000,23,'0','0'
0.019812380000000,23,'0','0'
0.019816900000000,23,'210','210'
0.019821440000000,23,'14','14'
0.019825960000000,23,E,E
0.019830500000000,23,'228','226'
0.019835020000000,23,'128','128'
0.019839560000000,23,'0','0'
0.019850040000000,24,'165',}
0.019853740000000,24,'6','134'
0.019864220000000,25,'174',}
0.019867920000000,25,'144','136'
0.019872680000000,26,'11','250'
0.019877200000000,26,'11',P
0.019881720000000,26,\n,'24'
0.019886260000000,26,'0','0'
0.019890780000000,26,'0','0'
0.019895300000000,26,'0','0'
0.019899820000000,26,'0','0'
0.019904340000000,26,'0','0'
0.019908860000000,26,'0','0'
0.059827900000000,27,'135',}
0.059831600000000,27,'228','226'
0.059836120000000,27,'128','128'
0.059840660000000,27,'0','0'
0.059865560000000,28,'129',}
0.059869260000000,28,'12','0'
0.059901800000000,29,'184',}
0.059905500000000,29,'5','5'
0.059910040000000,29,'0','0'
0.059914560000000,29,'0','0'
0.059919100000000,29,'0','0'
0.059923620000000,29,'4','4'
0.059934720000000,30,'128',}
0.059938420000000,30,},}
0.059942940000000,30,(,}
0.059947480000000,30,'12',}
0.059952000000000,30,'2',}
0.060575120000000,31,'135','179'
0.060578800000000,31,'226','228'
0.060583340000000,31,'128','128'
0.060593800000000,32,'174','179'
0.060597500000000,32,'136','144'
0.060602020000000,32,},'133'
0.060606540000000,32,(,'133'
0.060611060000000,32,'12','133'
0.060615580000000,32,'0','0'
0.060620100000000,32,'0','0'
0.060624640000000,32,'0','0'
0.060629160000000,32,'0','0'
0.060633680000000,32,'0','0'
0.060638200000000,32,'0','0'
0.060642720000000,32,'7','5'
0.060665500000000,33,'129',*
0.060669180000000,33,'144','12'
0.060680860000000,34,' ','160'
0.060693840000000,35,'165',}
0.060697540000000,35,'134','6'
0.069798380000000,36,'129',}
0.069802080000000,36,'0','144'
0.069806600000000,36,'0','0'
0.069811140000000,36,'0','0'
0.069815660000000,36,'210','210'
0.069820200000000,36,'14','14'
0.069824720000000,36,E,E
0.069829260000000,36,'228','226'
0.069833780000000,36,'128','128'
0.069838320000000,36,'0','0'
0.069848800000000,37,'165',}
0.069852500000000,37,'6','134'
0.069862980000000,38,'174',}
0.069866680000000,38,'144','136'
0.069871440000000,39,'11','250'
0.069875960000000,39,'11',P
0.069880500000000,39,\n,'24'
0.069885020000000,39,'0','0'
0.069889560000000,39,'0','0'
0.069894080000000,39,'0','0'
0.069898600000000,39,'0','0'
0.069903140000000,39,'0','0'
0.069907660000000,39,'0','0'
0.569866360000000,,'135',}
0.569870060000000,,'227','226'
0.569874600000000,,@,'128'
0.569879120000000,,'0','0'
