Time [s],Packet ID,MOSI,MISO
-0.000016440000000,0,'135',}
-0.000012740000000,0,'228','226'
-0.000008220000000,0,'192','128'
-0.000003700000000,0,'0','0'
0.000021200000000,1,'129',}
0.000024900000000,1,'12','0'
0.000057420000000,2,'184',}
0.000061120000000,2,'5','5'
0.000065640000000,2,'0','0'
0.000070180000000,2,'0','0'
0.000074700000000,2,'0','0'
0.000079220000000,2,'4','4'
0.000090300000000,3,'128',}
0.000094000000000,3,},}
0.000098520000000,3,(,}
0.000103060000000,3,'12',}
0.000107580000000,3,'2',}
0.000112120000000,3,'179',}
0.000730400000000,4,'135','179'
0.000734100000000,4,'226','228'
0.000738620000000,4,'224','192'
0.000749100000000,5,'174','179'
0.000752800000000,5,'136','144'
0.000757320000000,5,},'133'
0.000761840000000,5,(,'133'
0.000766360000000,5,'12','133'
0.000770900000000,5,'0','0'
0.000775420000000,5,'0','0'
0.000779960000000,5,'0','0'
0.000784500000000,5,'0','0'
0.000789020000000,5,'0','0'
0.000793560000000,5,'0','0'
0.000798080000000,5,'7','5'
0.000822440000000,6,'129',*
0.000826140000000,6,'144','12'
0.000836640000000,7,'137',}
0.000840340000000,7,'0','0'
0.000850840000000,8,'165',}
0.000854520000000,8,'134','6'
0.009796880000000,9,'129',}
0.009800560000000,9,'0','144'
0.009805100000000,9,'0','0'
0.009809620000000,9,'0','0'
0.009814160000000,9,'210','210'
0.009818680000000,9,'14','14'
0.009823200000000,9,E,E
0.009827720000000,9,'228','226'
0.009832260000000,9,'192','224'
0.009836780000000,9,'0','0'
0.009847260000000,10,'165',}
0.009850960000000,10,'6','134'
0.009861440000000,11,'174',}
0.009865140000000,11,'144','136'
0.009869660000000,11,'133',}
0.009874180000000,11,'133',(
0.009880140000000,12,@,'0'
0.009884660000000,12,'0','0'
0.009889200000000,12,'0','0'
0.009893720000000,12,'0','0'
0.009898260000000,12,'0','0'
0.009902780000000,12,'0','0'
0.009907320000000,12,'1','1'
0.009986820000000,13,'135',}
0.009990520000000,13,'228','226'
0.009995040000000,13,'192','224'
0.009999580000000,13,'0','0'
0.010024460000000,14,'129',}
0.010028160000000,14,'12','0'
0.010060680000000,15,'184',}
0.010064380000000,15,'5','5'
0.010068920000000,15,'0','0'
0.010073460000000,15,'0','0'
0.010077980000000,15,'0','0'
0.010082520000000,15,'4','4'
0.010093600000000,16,'128',}
0.010097300000000,16,},}
0.010101840000000,16,(,}
0.010106380000000,16,'12',}
0.010110920000000,16,'2',}
0.010733660000000,17,'135',*
0.010737360000000,17,'226','228'
0.010741900000000,17,'224','192'
0.010752380000000,18,'174',*
0.010756080000000,18,'136','144'
0.010760620000000,18,},'133'
0.010765140000000,18,(,'133'
0.010769680000000,18,'12','133'
0.010774200000000,18,'0','0'
0.010778740000000,18,'0','0'
0.010783280000000,18,'0','0'
0.010787800000000,18,'0','0'
0.010792340000000,18,'0','0'
0.010796860000000,18,'0','0'
0.010801400000000,18,'7','5'
0.010814880000000,19,'129',*
0.010818580000000,19,'144','12'
0.010829060000000,20,'137',}
0.010832760000000,20,'0','0'
0.010843240000000,21,'165',}
0.010846940000000,21,'134','6'
0.019817800000000,22,'129',}
0.019821480000000,22,'0','144'
0.019826020000000,22,'0','0'
0.019830560000000,22,'0','0'
0.019835080000000,22,'210','210'
0.019839600000000,22,'14','14'
0.019844140000000,22,E,E
0.019848660000000,22,'228','226'
0.019853200000000,22,'192','224'
0.019857720000000,22,'0','0'
0.019868200000000,23,'165',}
0.019871900000000,23,'6','134'
0.019882380000000,24,'174',}
0.019886320000000,25,!,'16'
0.019892040000000,26,a,J
0.019896560000000,26,a,'3'
0.019901100000000,26,@,'0'
0.019905620000000,26,'0','0'
0.019910160000000,26,'0','0'
0.019914680000000,26,'0','0'
0.019919220000000,26,'0','0'
0.019923740000000,26,'0','0'
0.019928280000000,26,'1','1'
0.020007920000000,27,'135',}
0.020011620000000,27,'228','226'
0.020016140000000,27,'192','224'
0.020020660000000,27,'0','0'
0.020045580000000,28,'129',}
0.020049260000000,28,'12','0'
0.020081820000000,29,'184',}
0.020085500000000,29,'5','5'
0.020090040000000,29,'0','0'
0.020094560000000,29,'0','0'
0.020099100000000,29,'0','0'
0.020103620000000,29,'4','4'
0.020114700000000,30,'128',}
0.020118400000000,30,},}
0.020122940000000,30,(,}
0.020127460000000,30,'12',}
0.020132000000000,30,'2',}
0.020755020000000,31,'135',*
0.020758720000000,31,'226','228'
0.020763240000000,31,'224','192'
0.020773740000000,32,'174',*
0.020777440000000,32,'136','144'
0.020781980000000,32,},'133'
0.020786520000000,32,(,'133'
0.020791060000000,32,'12','133'
0.020795580000000,32,'0','0'
0.020800120000000,32,'0','0'
0.020804640000000,32,'0','0'
0.020809180000000,32,'0','0'
0.020813700000000,32,'0','0'
0.020818240000000,32,'0','0'
0.020822760000000,32,'7','5'
0.020836240000000,33,'129',*
0.020839920000000,33,'144','12'
0.020850420000000,34,'137',}
0.020854120000000,34,'0','0'
0.020864600000000,35,'165',}
0.020868300000000,35,'134','6'
0.029811100000000,36,'129',}
0.029814800000000,36,'0','144'
0.029819340000000,36,'0','0'
0.029823860000000,36,'0','0'
0.029828400000000,36,'210','210'
0.029832920000000,36,'14','14'
0.029837440000000,36,E,E
0.029841980000000,36,'228','226'
0.029846500000000,36,'192','224'
0.029851040000000,36,'0','0'
0.029861520000000,37,'165',}
0.029865220000000,37,'6','134'
0.029875720000000,38,'174',}
0.029879640000000,39,!,'16'
0.029888700000000,40,'11',P
0.029894420000000,41,@,'0'
0.029898940000000,41,'0','0'
0.029903480000000,41,'0','0'
0.029908000000000,41,'0','0'
0.029912540000000,41,'0','0'
0.029917060000000,41,'0','0'
0.029921600000000,41,'1','1'
0.529845360000000,,'135',}
0.529849060000000,,'227','226'
0.529853600000000,,@,'224'
0.529858120000000,,'0','0'
