Time [s],Packet ID,MOSI,MISO
-0.000016460000000,0,'135',}
-0.000012760000000,0,'229','230'
-0.000008220000000,0,'0',' '
-0.000003680000000,0,'0','0'
0.000021220000000,1,'129',}
0.000024900000000,1,'12','0'
0.000057420000000,2,'184',}
0.000061120000000,2,'5','5'
0.000065640000000,2,'0','0'
0.000070160000000,2,'0','0'
0.000074680000000,2,'0','0'
0.000079220000000,2,'4','4'
0.000090280000000,3,'128',}
0.000093980000000,3,},}
0.000098500000000,3,(,}
0.000103020000000,3,'12',}
0.000107540000000,3,'2',}
0.000112080000000,3,'179',}
0.000730400000000,4,'135','179'
0.000734100000000,4,'227','229'
0.000738620000000,4,' ','0'
0.000749100000000,5,'174','179'
0.000752800000000,5,'136','144'
0.000757320000000,5,},'133'
0.000761840000000,5,(,'133'
0.000766360000000,5,'12','133'
0.000770900000000,5,'0','0'
0.000775420000000,5,'0','0'
0.000779940000000,5,'0','0'
0.000784480000000,5,'0','0'
0.000789000000000,5,'0','0'
0.000793520000000,5,'0','0'
0.000798060000000,5,'7','5'
0.000822380000000,6,'129','1'
0.000826080000000,6,'144','12'
0.000836560000000,7,'137',}
0.000840260000000,7,'0','0'
0.000850740000000,8,'165',}
0.000854440000000,8,'134','6'
0.009798020000000,9,'129',}
0.009801720000000,9,'0','144'
0.009806240000000,9,'0','0'
0.009810780000000,9,'0','0'
0.009815300000000,9,'210','210'
0.009819840000000,9,'14','14'
0.009824380000000,9,E,E
0.009828900000000,9,'229','227'
0.009833420000000,9,'0',' '
0.009837940000000,9,'0','0'
0.009848420000000,10,'165',}
0.009852120000000,10,'6','134'
0.009862600000000,11,'174',}
0.009867240000000,12,'8','135'
0.009875580000000,13,'11',P
0.009881300000000,14,@,'0'
0.009885820000000,14,'0','0'
0.009890340000000,14,'0','0'
0.009894880000000,14,'0','0'
0.009899400000000,14,'0','0'
0.009903940000000,14,'0','0'
0.009908460000000,14,'1','1'
0.029813560000000,15,'135',}
0.029817240000000,15,'229','227'
0.029821780000000,15,'0',' '
0.029826300000000,15,'0','0'
0.029851200000000,16,'129',}
0.029854900000000,16,'12','0'
0.029887480000000,17,'184',}
0.029891160000000,17,'5','5'
0.029895700000000,17,'0','0'
0.029900240000000,17,'0','0'
0.029904760000000,17,'0','0'
0.029909300000000,17,'4','4'
0.029920400000000,18,'128',}
0.029924100000000,18,},}
0.029928640000000,18,(,}
0.029933160000000,18,'12',}
0.029937700000000,18,'2',}
0.030560560000000,19,'135','179'
0.030564260000000,19,'227','229'
0.030568780000000,19,' ','0'
0.030579280000000,20,'174','179'
0.030582980000000,20,'136','144'
0.030587500000000,20,},'133'
0.030592040000000,20,(,'133'
0.030596560000000,20,'12','133'
0.030601080000000,20,'0','0'
0.030605620000000,20,'0','0'
0.030610140000000,20,'0','0'
0.030614660000000,20,'0','0'
0.030619180000000,20,'0','0'
0.030623720000000,20,'0','0'
0.030628240000000,20,'7','5'
0.030654100000000,21,'129','1'
0.030657800000000,21,'144','12'
0.030668300000000,22,'137',}
0.030672000000000,22,'0','0'
0.030682480000000,23,'165',}
0.030686180000000,23,'134','6'
0.039786440000000,24,'129',}
0.039790140000000,24,'0','144'
0.039794680000000,24,'0','0'
0.039799200000000,24,'0','0'
0.039803740000000,24,'210','210'
0.039808260000000,24,'14','14'
0.039812800000000,24,E,E
0.039817320000000,24,'229','227'
0.039821860000000,24,'0',' '
0.039826380000000,24,'0','0'
0.039836880000000,25,'165',}
0.039840580000000,25,'6','134'
0.039851060000000,26,'174',}
0.039854760000000,26,'144','136'
0.039860720000000,27,a,J
0.039865260000000,27,a,'3'
0.039869780000000,27,@,'0'
0.039874320000000,27,'0','0'
0.039878840000000,27,'0','0'
0.039883380000000,27,'0','0'
0.039887900000000,27,'0','0'
0.039892440000000,27,'0','0'
0.039896960000000,27,'1','1'
0.049807840000000,28,'135',}
0.049811540000000,28,'229','227'
0.049816060000000,28,'0',' '
0.049820600000000,28,'0','0'
0.049845540000000,29,'129',}
0.049849240000000,29,'12','0'
0.049881780000000,30,'184',}
0.049885480000000,30,'5','5'
0.049890000000000,30,'0','0'
0.049894520000000,30,'0','0'
0.049899060000000,30,'0','0'
0.049903580000000,30,'4','4'
0.049914640000000,31,'128',}
0.049918340000000,31,},}
0.049922860000000,31,(,}
0.049927380000000,31,'12',}
0.049931920000000,31,'2',}
0.049936440000000,31,'179',}
0.050555120000000,32,'135','179'
0.050558820000000,32,'227','229'
0.050563340000000,32,' ','0'
0.050573820000000,33,'174','179'
0.050577500000000,33,'136','144'
0.050582040000000,33,},'133'
0.050586560000000,33,(,'133'
0.050591080000000,33,'12','133'
0.050595600000000,33,'0','0'
0.050600120000000,33,'0','0'
0.050604640000000,33,'0','0'
0.050609160000000,33,'0','0'
0.050613700000000,33,'0','0'
0.050618220000000,33,'0','0'
0.050622740000000,33,'7','5'
0.050650120000000,34,'129','1'
0.050653820000000,34,'144','12'
0.050664300000000,35,'137',}
0.050668000000000,35,'0','0'
0.050678480000000,36,'165',}
0.050682180000000,36,'134','6'
0.059786080000000,37,'129',}
0.059789760000000,37,'0','144'
0.059794300000000,37,'0','0'
0.059798820000000,37,'0','0'
0.059803340000000,37,'210','210'
0.059807880000000,37,'14','14'
0.059812400000000,37,E,E
0.059816940000000,37,'229','227'
0.059821460000000,37,'0',' '
0.059825980000000,37,'0','0'
0.059836460000000,38,'165',}
0.059840140000000,38,'6','134'
0.059850620000000,39,'174',}
0.059855260000000,40,'8','135'
0.059860260000000,41,a,J
0.059864780000000,41,a,'3'
0.059869320000000,41,@,'0'
0.059873840000000,41,'0','0'
0.059878360000000,41,'0','0'
0.059882900000000,41,'0','0'
0.059887420000000,41,'0','0'
0.059891960000000,41,'0','0'
0.059896500000000,41,'1','1'
0.559852180000000,,'135',}
0.559855860000000,,'227','227'
0.559860400000000,,@,' '
0.559864920000000,,'0','0'
