Time [s],Packet ID,MOSI,MISO
-0.000016440000000,0,'135',}
-0.000012740000000,0,'229','227'
-0.000008220000000,0,'192',' '
-0.000003680000000,0,'0','0'
0.000021240000000,1,'129',}
0.000024940000000,1,'12','0'
0.000057500000000,2,'184',}
0.000061180000000,2,'5','5'
0.000065720000000,2,'0','0'
0.000070260000000,2,'0','0'
0.000074780000000,2,'0','0'
0.000079320000000,2,'4','4'
0.000090400000000,3,'128',}
0.000094100000000,3,},}
0.000098640000000,3,(,}
0.000103180000000,3,'12',}
0.000107700000000,3,'2',}
0.000112220000000,3,'179',}
0.000730680000000,4,'135','179'
0.000734380000000,4,'227','229'
0.000738900000000,4,'128','192'
0.000749400000000,5,'174','179'
0.000753100000000,5,'136','144'
0.000757620000000,5,},'133'
0.000762160000000,5,(,'133'
0.000766680000000,5,'12','133'
0.000771220000000,5,'0','0'
0.000775760000000,5,'0','0'
0.000780280000000,5,'0','0'
0.000784820000000,5,'0','0'
0.000789340000000,5,'0','0'
0.000793880000000,5,'0','0'
0.000798420000000,5,'7','5'
0.000824280000000,6,'129','1'
0.000827980000000,6,'144','12'
0.000838480000000,7,'137',}
0.000842180000000,7,'0','0'
0.000852660000000,8,'165',}
0.000856360000000,8,'134','6'
0.009799440000000,9,'129',}
0.009803120000000,9,'0','144'
0.009807660000000,9,'0','0'
0.009812180000000,9,'0','0'
0.009816720000000,9,'210','210'
0.009821260000000,9,'14','14'
0.009825800000000,9,E,E
0.009830340000000,9,'229','227'
0.009834880000000,9,'192','128'
0.009839420000000,9,'0','0'
0.009849920000000,10,'165',}
0.009853620000000,10,'6','134'
0.009864120000000,11,'174',}
0.009868780000000,12,'8','135'
0.009877140000000,13,'11',P
0.009881680000000,13,\n,'24'
0.009886220000000,13,'0','0'
0.009890760000000,13,'0','0'
0.009895300000000,13,'0','0'
0.009899840000000,13,'0','0'
0.009904380000000,13,'0','0'
0.009908920000000,13,'0','0'
0.039843180000000,14,'135',}
0.039846880000000,14,'229','227'
0.039851420000000,14,'192','128'
0.039855960000000,14,'0','0'
0.039880900000000,15,'129',}
0.039884600000000,15,'12','0'
0.039917160000000,16,'184',}
0.039920840000000,16,'5','5'
0.039925380000000,16,'0','0'
0.039929900000000,16,'0','0'
0.039934440000000,16,'0','0'
0.039938960000000,16,'4','4'
0.039950060000000,17,'128',}
0.039953740000000,17,},}
0.039958280000000,17,(,}
0.039962800000000,17,'12',}
0.039967340000000,17,'2',}
0.040590200000000,18,'135','179'
0.040593900000000,18,'227','229'
0.040598440000000,18,'128','192'
0.040608920000000,19,'174','179'
0.040612620000000,19,'136','144'
0.040617160000000,19,},'133'
0.040621680000000,19,(,'133'
0.040626220000000,19,'12','133'
0.040630740000000,19,'0','0'
0.040635280000000,19,'0','0'
0.040639800000000,19,'0','0'
0.040644340000000,19,'0','0'
0.040648860000000,19,'0','0'
0.040653400000000,19,'0','0'
0.040657920000000,19,'7','5'
0.040683800000000,20,'129','1'
0.040687500000000,20,'144','12'
0.040697980000000,21,'137',}
0.040701680000000,21,'0','0'
0.040712140000000,22,'165',}
0.040715840000000,22,'134','6'
0.049815960000000,23,'129',}
0.049819660000000,23,'0','144'
0.049824200000000,23,'0','0'
0.049828720000000,23,'0','0'
0.049833260000000,23,'210','210'
0.049837780000000,23,'14','14'
0.049842320000000,23,E,E
0.049846840000000,23,'229','227'
0.049851380000000,23,'192','128'
0.049855900000000,23,'0','0'
0.049866380000000,24,'165',}
0.049870080000000,24,'6','134'
0.049880580000000,25,'174',}
0.049884500000000,26,!,'16'
0.049890220000000,27,a,J
0.049894760000000,28,a,'3'
0.049899280000000,29,@,'0'
0.049903820000000,29,'0','0'
0.049908340000000,29,'0','0'
0.049912880000000,29,'0','0'
0.049917420000000,29,'0','0'
0.049921960000000,29,'0','0'
0.049926500000000,29,'1','1'
0.079840180000000,30,'135',}
0.079843880000000,30,'229','227'
0.079848400000000,30,'192','128'
0.079852940000000,30,'0','0'
0.079877860000000,31,'129',}
0.079881540000000,31,'12','0'
0.079914080000000,32,'184',}
0.079917780000000,32,'5','5'
0.079922320000000,32,'0','0'
0.079926840000000,32,'0','0'
0.079931380000000,32,'0','0'
0.079935900000000,32,'4','4'
0.079946980000000,33,'128',}
0.079950660000000,33,},}
0.079955200000000,33,(,}
0.079959720000000,33,'12',}
0.079964240000000,33,'2',}
0.079968760000000,33,'179',}
0.080587200000000,34,'135','179'
0.080590900000000,34,'227','229'
0.080595440000000,34,'128','192'
0.080605920000000,35,'174','179'
0.080609620000000,35,'136','144'
0.080614140000000,35,},'133'
0.080618680000000,35,(,'133'
0.080623200000000,35,'12','133'
0.080627740000000,35,'0','0'
0.080632280000000,35,'0','0'
0.080636800000000,35,'0','0'
0.080641340000000,35,'0','0'
0.080645860000000,35,'0','0'
0.080650400000000,35,'0','0'
0.080654920000000,35,'7','5'
0.080680800000000,36,'129','1'
0.080684500000000,36,'144','12'
0.080695000000000,37,'137',}
0.080698700000000,37,'0','0'
0.080709180000000,38,'165',}
0.080712880000000,38,'134','6'
0.089815840000000,39,'129',}
0.089819520000000,39,'0','144'
0.089824060000000,39,'0','0'
0.089828580000000,39,'0','0'
0.089833120000000,39,'210','210'
0.089837640000000,39,'14','14'
0.089842180000000,39,E,E
0.089846700000000,39,'229','227'
0.089851240000000,39,'192','128'
0.089855760000000,39,'0','0'
0.089866240000000,40,'165',}
0.089869940000000,40,'6','134'
0.089880420000000,41,'174',}
0.089884120000000,41,'144','136'
0.089888640000000,41,'133',}
0.089893180000000,41,'133',(
0.089897700000000,41,'133','12'
0.089902240000000,41,'0','0'
0.089906780000000,41,'0','0'
0.089911300000000,41,'0','0'
0.089915820000000,41,'0','0'
0.089920360000000,41,'0','0'
0.089924880000000,41,'0','0'
0.089929420000000,41,'5','7'
0.589852160000000,,'135',}
0.589855840000000,,'227','227'
0.589860380000000,,@,'128'
0.589864900000000,,'0','0'
