Time [s],Packet ID,MOSI,MISO
-0.000016420000000,0,'135' (0x87),} (0x7D)
-0.000012740000000,0,'229' (0xE5),'227' (0xE3)
-0.000008200000000,0,'192' (0xC0),' ' (0x20)
-0.000003680000000,0,'0' (0x00),'0' (0x00)
0.000021220000000,1,'129' (0x81),} (0x7D)
0.000024920000000,1,'12' (0x0C),'0' (0x00)
0.000057420000000,2,'184' (0xB8),} (0x7D)
0.000061120000000,2,'5' (0x05),'5' (0x05)
0.000065640000000,2,'0' (0x00),'0' (0x00)
0.000070180000000,2,'0' (0x00),'0' (0x00)
0.000074700000000,2,'0' (0x00),'0' (0x00)
0.000079240000000,2,'4' (0x04),'4' (0x04)
0.000090340000000,3,'128' (0x80),} (0x7D)
0.000094020000000,3,} (0x7D),} (0x7D)
0.000098560000000,3,( (0x28),} (0x7D)
0.000103100000000,3,'12' (0x0C),} (0x7D)
0.000107620000000,3,'2' (0x02),} (0x7D)
0.000112160000000,3,'179' (0xB3),} (0x7D)
0.000730660000000,4,'135' (0x87),'179' (0xB3)
0.000734360000000,4,'227' (0xE3),'229' (0xE5)
0.000738880000000,4,'128' (0x80),'192' (0xC0)
0.000749360000000,5,'174' (0xAE),'179' (0xB3)
0.000753060000000,5,'136' (0x88),'144' (0x90)
0.000757600000000,5,} (0x7D),'133' (0x85)
0.000762120000000,5,( (0x28),'133' (0x85)
0.000766640000000,5,'12' (0x0C),'133' (0x85)
0.000771180000000,5,'0' (0x00),'0' (0x00)
0.000775700000000,5,'0' (0x00),'0' (0x00)
0.000780240000000,5,'0' (0x00),'0' (0x00)
0.000784760000000,5,'0' (0x00),'0' (0x00)
0.000789280000000,5,'0' (0x00),'0' (0x00)
0.000793820000000,5,'0' (0x00),'0' (0x00)
0.000798340000000,5,'7' (0x07),'5' (0x05)
0.000824200000000,6,'129' (0x81),'0' (0x00)
0.000827900000000,6,'144' (0x90),'12' (0x0C)
0.000838380000000,7,'137' (0x89),} (0x7D)
0.000842080000000,7,'0' (0x00),'0' (0x00)
0.000852560000000,8,'165' (0xA5),} (0x7D)
0.000856260000000,8,'134' (0x86),'6' (0x06)
0.009798400000000,9,'129' (0x81),} (0x7D)
0.009802100000000,9,'0' (0x00),'144' (0x90)
0.009806640000000,9,'0' (0x00),'0' (0x00)
0.009811160000000,9,'0' (0x00),'0' (0x00)
0.009815680000000,9,'210' (0xD2),'210' (0xD2)
0.009820220000000,9,'14' (0x0E),'14' (0x0E)
0.009824740000000,9,E (0x45),E (0x45)
0.009829260000000,9,'229' (0xE5),'227' (0xE3)
0.009833800000000,9,'192' (0xC0),'128' (0x80)
0.009838320000000,9,'0' (0x00),'0' (0x00)
0.009848800000000,10,'165' (0xA5),} (0x7D)
0.009852500000000,10,'6' (0x06),'134' (0x86)
0.009862980000000,11,'174' (0xAE),} (0x7D)
0.009867620000000,12,'8' (0x08),'135' (0x87)
0.009875960000000,13,'11' (0x0B),P (0x50)
0.009881680000000,14,@ (0x40),'0' (0x00)
0.009886220000000,14,'0' (0x00),'0' (0x00)
0.009890740000000,14,'0' (0x00),'0' (0x00)
0.009895260000000,14,'0' (0x00),'0' (0x00)
0.009899800000000,14,'0' (0x00),'0' (0x00)
0.009904320000000,14,'0' (0x00),'0' (0x00)
0.009908840000000,14,'1' (0x01),'1' (0x01)
0.029838860000000,15,'135' (0x87),} (0x7D)
0.029842560000000,15,'229' (0xE5),'227' (0xE3)
0.029847100000000,15,'192' (0xC0),'128' (0x80)
0.029851620000000,15,'0' (0x00),'0' (0x00)
0.029876520000000,16,'129' (0x81),} (0x7D)
0.029880220000000,16,'12' (0x0C),'0' (0x00)
0.029912780000000,17,'184' (0xB8),} (0x7D)
0.029916480000000,17,'5' (0x05),'5' (0x05)
0.029921020000000,17,'0' (0x00),'0' (0x00)
0.029925540000000,17,'0' (0x00),'0' (0x00)
0.029930080000000,17,'0' (0x00),'0' (0x00)
0.029934620000000,17,'4' (0x04),'4' (0x04)
0.029945720000000,18,'128' (0x80),} (0x7D)
0.029949420000000,18,} (0x7D),} (0x7D)
0.029953940000000,18,( (0x28),} (0x7D)
0.029958480000000,18,'12' (0x0C),} (0x7D)
0.029963020000000,18,'2' (0x02),} (0x7D)
0.029967560000000,18,'179' (0xB3),} (0x7D)
0.030586020000000,19,'135' (0x87),'179' (0xB3)
0.030589720000000,19,'227' (0xE3),'229' (0xE5)
0.030594260000000,19,'128' (0x80),'192' (0xC0)
0.030604760000000,20,'174' (0xAE),'179' (0xB3)
0.030608440000000,20,'136' (0x88),'144' (0x90)
0.030612980000000,20,} (0x7D),'133' (0x85)
0.030617500000000,20,( (0x28),'133' (0x85)
0.030622040000000,20,'12' (0x0C),'133' (0x85)
0.030626560000000,20,'0' (0x00),'0' (0x00)
0.030631080000000,20,'0' (0x00),'0' (0x00)
0.030635620000000,20,'0' (0x00),'0' (0x00)
0.030640140000000,20,'0' (0x00),'0' (0x00)
0.030644680000000,20,'0' (0x00),'0' (0x00)
0.030649200000000,20,'0' (0x00),'0' (0x00)
0.030653740000000,20,'7' (0x07),'5' (0x05)
0.030679600000000,21,'129' (0x81),'0' (0x00)
0.030683280000000,21,'144' (0x90),'12' (0x0C)
0.030693780000000,22,'137' (0x89),} (0x7D)
0.030697480000000,22,'0' (0x00),'0' (0x00)
0.030707940000000,23,'165' (0xA5),} (0x7D)
0.030711640000000,23,'134' (0x86),'6' (0x06)
0.039812220000000,24,'129' (0x81),} (0x7D)
0.039815920000000,24,'0' (0x00),'144' (0x90)
0.039820460000000,24,'0' (0x00),'0' (0x00)
0.039824980000000,24,'0' (0x00),'0' (0x00)
0.039829520000000,24,'210' (0xD2),'210' (0xD2)
0.039834040000000,24,'14' (0x0E),'14' (0x0E)
0.039838580000000,24,E (0x45),E (0x45)
0.039843120000000,24,'229' (0xE5),'227' (0xE3)
0.039847660000000,24,'192' (0xC0),'128' (0x80)
0.039852180000000,24,'0' (0x00),'0' (0x00)
0.039862700000000,25,'165' (0xA5),} (0x7D)
0.039866400000000,25,'6' (0x06),'134' (0x86)
0.039876880000000,26,'174' (0xAE),} (0x7D)
0.039881540000000,27,'8' (0x08),'135' (0x87)
0.039886080000000,27,X (0x58),'210' (0xD2)
0.039890600000000,27,X (0x58),'128' (0x80)
0.039895140000000,27,P (0x50),'192' (0xC0)
0.039899680000000,27,'0' (0x00),'0' (0x00)
0.039904200000000,27,'0' (0x00),'0' (0x00)
0.039908740000000,27,'0' (0x00),'0' (0x00)
0.039913280000000,27,'0' (0x00),'0' (0x00)
0.039917800000000,27,'0' (0x00),'0' (0x00)
0.039922340000000,27,'0' (0x00),'0' (0x00)
0.040002420000000,28,'135' (0x87),} (0x7D)
0.040006120000000,28,'229' (0xE5),'227' (0xE3)
0.040011120000000,29,'0' (0x00),'0' (0x00)
0.040040080000000,30,'129' (0x81),} (0x7D)
0.040043760000000,30,'12' (0x0C),'0' (0x00)
0.040076280000000,31,'184' (0xB8),} (0x7D)
0.040079980000000,31,'5' (0x05),'5' (0x05)
0.040084500000000,31,'0' (0x00),'0' (0x00)
0.040089020000000,31,'0' (0x00),'0' (0x00)
0.040093540000000,31,'0' (0x00),'0' (0x00)
0.040098080000000,31,'4' (0x04),'4' (0x04)
0.040109140000000,32,'128' (0x80),} (0x7D)
0.040112840000000,32,} (0x7D),} (0x7D)
0.040117380000000,32,( (0x28),} (0x7D)
0.040121900000000,32,'12' (0x0C),} (0x7D)
0.040126440000000,32,'2' (0x02),} (0x7D)
0.040130980000000,32,'179' (0xB3),} (0x7D)
0.040749320000000,33,'135' (0x87),'0' (0x00)
0.040753020000000,33,'227' (0xE3),'229' (0xE5)
0.040757560000000,33,'128' (0x80),'192' (0xC0)
0.040768060000000,34,'174' (0xAE),'0' (0x00)
0.040771760000000,34,'136' (0x88),'144' (0x90)
0.040776300000000,34,} (0x7D),'133' (0x85)
0.040780820000000,34,( (0x28),'133' (0x85)
0.040785360000000,34,'12' (0x0C),'133' (0x85)
0.040789900000000,34,'0' (0x00),'0' (0x00)
0.040794440000000,34,'0' (0x00),'0' (0x00)
0.040798960000000,34,'0' (0x00),'0' (0x00)
0.040803500000000,34,'0' (0x00),'0' (0x00)
0.040808040000000,34,'0' (0x00),'0' (0x00)
0.040812580000000,34,'0' (0x00),'0' (0x00)
0.040817120000000,34,'7' (0x07),'5' (0x05)
0.040830600000000,35,'129' (0x81),'0' (0x00)
0.040834300000000,35,'144' (0x90),'12' (0x0C)
0.040844800000000,36,'137' (0x89),} (0x7D)
0.040848500000000,36,'0' (0x00),'0' (0x00)
0.040859000000000,37,'165' (0xA5),} (0x7D)
0.040862680000000,37,'134' (0x86),'6' (0x06)
0.049805680000000,38,'129' (0x81),} (0x7D)
0.049809380000000,38,'0' (0x00),'144' (0x90)
0.049813920000000,38,'0' (0x00),'0' (0x00)
0.049818460000000,38,'0' (0x00),'0' (0x00)
0.049822980000000,38,'210' (0xD2),'210' (0xD2)
0.049827500000000,38,'14' (0x0E),'14' (0x0E)
0.049832040000000,38,E (0x45),E (0x45)
0.049836560000000,38,'229' (0xE5),'227' (0xE3)
0.049841080000000,38,'192' (0xC0),'128' (0x80)
0.049845620000000,38,'0' (0x00),'0' (0x00)
0.049856100000000,39,'165' (0xA5),} (0x7D)
0.049859800000000,39,'6' (0x06),'134' (0x86)
0.049870280000000,40,'174' (0xAE),} (0x7D)
0.049873980000000,40,'144' (0x90),'136' (0x88)
0.049878740000000,41,'11' (0x0B),'250' (0xFA)
0.049884460000000,42,a (0x61),'3' (0x03)
0.049889000000000,42,@ (0x40),'0' (0x00)
0.049893520000000,42,'0' (0x00),'0' (0x00)
0.049898040000000,42,'0' (0x00),'0' (0x00)
0.049902580000000,42,'0' (0x00),'0' (0x00)
0.049907100000000,42,'0' (0x00),'0' (0x00)
0.049911640000000,42,'0' (0x00),'0' (0x00)
0.049916160000000,42,'1' (0x01),'1' (0x01)
0.549865240000000,,'135' (0x87),} (0x7D)
0.549868920000000,,'227' (0xE3),'227' (0xE3)
0.549873460000000,,@ (0x40),'128' (0x80)
0.549877980000000,,'0' (0x00),'0' (0x00)
