Time [s],Packet ID,MOSI,MISO
-0.000016440000000,0,'135',}
-0.000012740000000,0,'230','227'
-0.000008220000000,0,@,'224'
-0.000003700000000,0,'0','0'
0.000021220000000,1,'129',}
0.000024900000000,1,'12','0'
0.000057440000000,2,'184',}
0.000061140000000,2,'5','5'
0.000065680000000,2,'0','0'
0.000070220000000,2,'0','0'
0.000074740000000,2,'0','0'
0.000079280000000,2,'4','4'
0.000090360000000,3,'128',}
0.000094060000000,3,},}
0.000098600000000,3,(,}
0.000103120000000,3,'12',}
0.000107660000000,3,'2',}
0.000112180000000,3,'179',}
0.000730600000000,4,'135','179'
0.000734300000000,4,'228','230'
0.000738820000000,4,' ',@
0.000749300000000,5,'174','179'
0.000753000000000,5,'136','144'
0.000757520000000,5,},'133'
0.000762040000000,5,(,'133'
0.000766580000000,5,'12','133'
0.000771100000000,5,'0','0'
0.000775640000000,5,'0','0'
0.000780180000000,5,'0','0'
0.000784700000000,5,'0','0'
0.000789220000000,5,'0','0'
0.000793760000000,5,'0','0'
0.000798280000000,5,'7','5'
0.000825700000000,6,'129','1'
0.000829400000000,6,'144','12'
0.000839900000000,7,'137',}
0.000843580000000,7,'0','0'
0.000854080000000,8,'165',}
0.000857780000000,8,'134','6'
0.009800160000000,9,'129',}
0.009803860000000,9,'0','144'
0.009808380000000,9,'0','0'
0.009812920000000,9,'0','0'
0.009817440000000,9,'210','210'
0.009821980000000,9,'14','14'
0.009826500000000,9,E,E
0.009831040000000,9,'230','228'
0.009835560000000,9,@,' '
0.009840100000000,9,'0','0'
0.009850580000000,10,'165',}
0.009854280000000,10,'6','134'
0.009864760000000,11,'174',}
0.009868460000000,11,'144','136'
0.009873220000000,12,'11','250'
0.009878940000000,13,a,'3'
0.009883460000000,13,@,'0'
0.009888000000000,13,'0','0'
0.009892520000000,13,'0','0'
0.009897040000000,13,'0','0'
0.009901580000000,13,'0','0'
0.009906120000000,13,'0','0'
0.009910640000000,13,'1','1'
0.009990260000000,14,'135',}
0.009993960000000,14,'230','228'
0.009998500000000,14,@,' '
0.010003040000000,14,'0','0'
0.010027980000000,15,'129',}
0.010031680000000,15,'12','0'
0.010064240000000,16,'184',}
0.010067940000000,16,'5','5'
0.010072480000000,16,'0','0'
0.010077020000000,16,'0','0'
0.010081560000000,16,'0','0'
0.010086080000000,16,'4','4'
0.010097160000000,17,'128',}
0.010100860000000,17,},}
0.010105380000000,17,(,}
0.010109900000000,17,'12',}
0.010114440000000,17,'2',}
0.010118980000000,17,'179',}
0.010737460000000,18,'135','1'
0.010741160000000,18,'228','230'
0.010745700000000,18,' ',@
0.010756180000000,19,'174','1'
0.010759880000000,19,'136','144'
0.010764400000000,19,},'133'
0.010768940000000,19,(,'133'
0.010773460000000,19,'12','133'
0.010777980000000,19,'0','0'
0.010782520000000,19,'0','0'
0.010787040000000,19,'0','0'
0.010791580000000,19,'0','0'
0.010796100000000,19,'0','0'
0.010800620000000,19,'0','0'
0.010805160000000,19,'7','5'
0.010818600000000,20,'129','1'
0.010822300000000,20,'144','12'
0.010832780000000,21,'137',}
0.010836480000000,21,'0','0'
0.010846960000000,22,'165',}
0.010850640000000,22,'134','6'
0.019792300000000,23,'129',}
0.019795980000000,23,'0','144'
0.019800520000000,23,'0','0'
0.019805040000000,23,'0','0'
0.019809560000000,23,'210','210'
0.019814080000000,23,'14','14'
0.019818600000000,23,E,E
0.019823140000000,23,'230','228'
0.019827660000000,23,@,' '
0.019832180000000,23,'0','0'
0.019842640000000,24,'165',}
0.019846340000000,24,'6','134'
0.019856820000000,25,'174',}
0.019860760000000,26,!,'16'
0.019865300000000,26,'11','250'
0.019871020000000,27,a,'3'
0.019875560000000,27,@,'0'
0.019880080000000,27,'0','0'
0.019884620000000,27,'0','0'
0.019889140000000,27,'0','0'
0.019893680000000,27,'0','0'
0.019898200000000,27,'0','0'
0.019902740000000,27,'1','1'
0.019982340000000,28,'135',}
0.019986040000000,28,'230','228'
0.019990560000000,28,@,' '
0.019995100000000,28,'0','0'
0.020020040000000,29,'129',}
0.020023740000000,29,'12','0'
0.020056280000000,30,'184',}
0.020059980000000,30,'5','5'
0.020064500000000,30,'0','0'
0.020069040000000,30,'0','0'
0.020073560000000,30,'0','0'
0.020078100000000,30,'4','4'
0.020089180000000,31,'128',}
0.020092880000000,31,},}
0.020097400000000,31,(,}
0.020101940000000,31,'12',}
0.020106460000000,31,'2',}
0.020111000000000,31,'179',}
0.020729340000000,32,'135','1'
0.020733020000000,32,'228','230'
0.020737560000000,32,' ',@
0.020748040000000,33,'174','1'
0.020751720000000,33,'136','144'
0.020756260000000,33,},'133'
0.020760780000000,33,(,'133'
0.020765300000000,33,'12','133'
0.020769840000000,33,'0','0'
0.020774360000000,33,'0','0'
0.020778900000000,33,'0','0'
0.020783440000000,33,'0','0'
0.020787960000000,33,'0','0'
0.020792500000000,33,'0','0'
0.020797040000000,33,'7','5'
0.020810500000000,34,'129','1'
0.020814200000000,34,'144','12'
0.020824700000000,35,'137',}
0.020828400000000,35,'0','0'
0.020838880000000,36,'165',}
0.020842600000000,36,'134','6'
0.029785860000000,37,'129',}
0.029789560000000,37,'0','144'
0.029794080000000,37,'0','0'
0.029798620000000,37,'0','0'
0.029803140000000,37,'210','210'
0.029807680000000,37,'14','14'
0.029812200000000,37,E,E
0.029816720000000,37,'230','228'
0.029821240000000,37,@,' '
0.029825780000000,37,'0','0'
0.029836260000000,38,'165',}
0.029839940000000,38,'6','134'
0.029850440000000,39,'174',}
0.029854360000000,40,!,'16'
0.029860080000000,41,a,J
0.029864600000000,41,a,'3'
0.029869140000000,41,@,'0'
0.029873660000000,41,'0','0'
0.029878200000000,41,'0','0'
0.029882720000000,41,'0','0'
0.029887260000000,41,'0','0'
0.029891780000000,41,'0','0'
0.029896300000000,41,'1','1'
0.529845360000000,,'135',}
0.529849040000000,,'227','228'
0.529853560000000,,@,' '
0.529858100000000,,'0','0'
