Time [s],Packet ID,MOSI,MISO
-0.000016440000000,0,'135' (0x87),} (0x7D)
-0.000012760000000,0,'230' (0xE6),'230' (0xE6)
-0.000008220000000,0,@ (0x40),' ' (0x20)
-0.000003700000000,0,'0' (0x00),'0' (0x00)
0.000021180000000,1,'129' (0x81),} (0x7D)
0.000024880000000,1,'12' (0x0C),'0' (0x00)
0.000057380000000,2,'184' (0xB8),} (0x7D)
0.000061080000000,2,'5' (0x05),'5' (0x05)
0.000065600000000,2,'0' (0x00),'0' (0x00)
0.000070140000000,2,'0' (0x00),'0' (0x00)
0.000074660000000,2,'0' (0x00),'0' (0x00)
0.000079180000000,2,'4' (0x04),'4' (0x04)
0.000090260000000,3,'128' (0x80),} (0x7D)
0.000093940000000,3,} (0x7D),} (0x7D)
0.000098460000000,3,( (0x28),} (0x7D)
0.000102980000000,3,'12' (0x0C),} (0x7D)
0.000107500000000,3,'2' (0x02),} (0x7D)
0.000730660000000,4,'135' (0x87),'179' (0xB3)
0.000734360000000,4,'228' (0xE4),'230' (0xE6)
0.000738880000000,4,' ' (0x20),@ (0x40)
0.000749380000000,5,'174' (0xAE),'179' (0xB3)
0.000753080000000,5,'136' (0x88),'144' (0x90)
0.000757620000000,5,} (0x7D),'133' (0x85)
0.000762140000000,5,( (0x28),'133' (0x85)
0.000766680000000,5,'12' (0x0C),'133' (0x85)
0.000771220000000,5,'0' (0x00),'0' (0x00)
0.000775760000000,5,'0' (0x00),'0' (0x00)
0.000780280000000,5,'0' (0x00),'0' (0x00)
0.000784820000000,5,'0' (0x00),'0' (0x00)
0.000789340000000,5,'0' (0x00),'0' (0x00)
0.000793880000000,5,'0' (0x00),'0' (0x00)
0.000798420000000,5,'7' (0x07),'5' (0x05)
0.000827400000000,6,'129' (0x81),'0' (0x00)
0.000831100000000,6,'144' (0x90),'12' (0x0C)
0.000841580000000,7,'137' (0x89),} (0x7D)
0.000845280000000,7,'0' (0x00),'0' (0x00)
0.000855760000000,8,'165' (0xA5),} (0x7D)
0.000859460000000,8,'134' (0x86),'6' (0x06)
0.009802060000000,9,'129' (0x81),} (0x7D)
0.009805760000000,9,'0' (0x00),'144' (0x90)
0.009810300000000,9,'0' (0x00),'0' (0x00)
0.009814820000000,9,'0' (0x00),'0' (0x00)
0.009819360000000,9,'210' (0xD2),'210' (0xD2)
0.009823880000000,9,'14' (0x0E),'14' (0x0E)
0.009828420000000,9,E (0x45),E (0x45)
0.009832940000000,9,'230' (0xE6),'228' (0xE4)
0.009837480000000,9,@ (0x40),' ' (0x20)
0.009842000000000,9,'0' (0x00),'0' (0x00)
0.009852500000000,10,'165' (0xA5),} (0x7D)
0.009856180000000,10,'6' (0x06),'134' (0x86)
0.009866680000000,11,'174' (0xAE),} (0x7D)
0.009871320000000,12,'8' (0x08),'135' (0x87)
0.009875860000000,12,X (0x58),'210' (0xD2)
0.009880860000000,13,a (0x61),'3' (0x03)
0.009885400000000,13,@ (0x40),'0' (0x00)
0.009889920000000,13,'0' (0x00),'0' (0x00)
0.009894460000000,13,'0' (0x00),'0' (0x00)
0.009898980000000,13,'0' (0x00),'0' (0x00)
0.009903520000000,13,'0' (0x00),'0' (0x00)
0.009908040000000,13,'0' (0x00),'0' (0x00)
0.009912580000000,13,'1' (0x01),'1' (0x01)
0.009992040000000,14,'135' (0x87),} (0x7D)
0.009995740000000,14,'230' (0xE6),'228' (0xE4)
0.010000260000000,14,@ (0x40),' ' (0x20)
0.010004780000000,14,'0' (0x00),'0' (0x00)
0.010029660000000,15,'129' (0x81),} (0x7D)
0.010033360000000,15,'12' (0x0C),'0' (0x00)
0.010065900000000,16,'184' (0xB8),} (0x7D)
0.010069600000000,16,'5' (0x05),'5' (0x05)
0.010074120000000,16,'0' (0x00),'0' (0x00)
0.010078660000000,16,'0' (0x00),'0' (0x00)
0.010083180000000,16,'0' (0x00),'0' (0x00)
0.010087700000000,16,'4' (0x04),'4' (0x04)
0.010098800000000,17,'128' (0x80),} (0x7D)
0.010102480000000,17,} (0x7D),} (0x7D)
0.010107020000000,17,( (0x28),} (0x7D)
0.010111540000000,17,'12' (0x0C),} (0x7D)
0.010116080000000,17,'2' (0x02),} (0x7D)
0.010120600000000,17,'179' (0xB3),} (0x7D)
0.010739240000000,18,'135' (0x87),'0' (0x00)
0.010742940000000,18,'228' (0xE4),'230' (0xE6)
0.010747460000000,18,' ' (0x20),@ (0x40)
0.010757960000000,19,'174' (0xAE),'0' (0x00)
0.010761640000000,19,'136' (0x88),'144' (0x90)
0.010766180000000,19,} (0x7D),'133' (0x85)
0.010770700000000,19,( (0x28),'133' (0x85)
0.010775240000000,19,'12' (0x0C),'133' (0x85)
0.010779780000000,19,'0' (0x00),'0' (0x00)
0.010784300000000,19,'0' (0x00),'0' (0x00)
0.010788840000000,19,'0' (0x00),'0' (0x00)
0.010793360000000,19,'0' (0x00),'0' (0x00)
0.010797900000000,19,'0' (0x00),'0' (0x00)
0.010802420000000,19,'0' (0x00),'0' (0x00)
0.010806960000000,19,'7' (0x07),'5' (0x05)
0.010820420000000,20,'129' (0x81),'0' (0x00)
0.010824120000000,20,'144' (0x90),'12' (0x0C)
0.010834600000000,21,'137' (0x89),} (0x7D)
0.010838280000000,21,'0' (0x00),'0' (0x00)
0.010848760000000,22,'165' (0xA5),} (0x7D)
0.010852460000000,22,'134' (0x86),'6' (0x06)
0.019822500000000,23,'129' (0x81),} (0x7D)
0.019826200000000,23,'0' (0x00),'144' (0x90)
0.019830720000000,23,'0' (0x00),'0' (0x00)
0.019835260000000,23,'0' (0x00),'0' (0x00)
0.019839780000000,23,'210' (0xD2),'210' (0xD2)
0.019844320000000,23,'14' (0x0E),'14' (0x0E)
0.019848840000000,23,E (0x45),E (0x45)
0.019853380000000,23,'230' (0xE6),'228' (0xE4)
0.019857900000000,23,@ (0x40),' ' (0x20)
0.019862420000000,23,'0' (0x00),'0' (0x00)
0.019872920000000,24,'165' (0xA5),} (0x7D)
0.019876600000000,24,'6' (0x06),'134' (0x86)
0.019887080000000,25,'174' (0xAE),} (0x7D)
0.019890780000000,25,'144' (0x90),'136' (0x88)
0.019895540000000,26,'11' (0x0B),'250' (0xFA)
0.019901260000000,27,a (0x61),'3' (0x03)
0.019905780000000,27,@ (0x40),'0' (0x00)
0.019910320000000,27,'0' (0x00),'0' (0x00)
0.019914840000000,27,'0' (0x00),'0' (0x00)
0.019919360000000,27,'0' (0x00),'0' (0x00)
0.019923880000000,27,'0' (0x00),'0' (0x00)
0.019928420000000,27,'0' (0x00),'0' (0x00)
0.019932940000000,27,'1' (0x01),'1' (0x01)
0.020012480000000,28,'135' (0x87),} (0x7D)
0.020016160000000,28,'230' (0xE6),'228' (0xE4)
0.020020680000000,28,@ (0x40),' ' (0x20)
0.020025200000000,28,'0' (0x00),'0' (0x00)
0.020050100000000,29,'129' (0x81),} (0x7D)
0.020053800000000,29,'12' (0x0C),'0' (0x00)
0.020086340000000,30,'184' (0xB8),} (0x7D)
0.020090040000000,30,'5' (0x05),'5' (0x05)
0.020094580000000,30,'0' (0x00),'0' (0x00)
0.020099100000000,30,'0' (0x00),'0' (0x00)
0.020103640000000,30,'0' (0x00),'0' (0x00)
0.020108180000000,30,'4' (0x04),'4' (0x04)
0.020119280000000,31,'128' (0x80),} (0x7D)
0.020122980000000,31,} (0x7D),} (0x7D)
0.020127520000000,31,( (0x28),} (0x7D)
0.020132060000000,31,'12' (0x0C),} (0x7D)
0.020136600000000,31,'2' (0x02),} (0x7D)
0.020141140000000,31,'179' (0xB3),} (0x7D)
0.020759700000000,32,'135' (0x87),'0' (0x00)
0.020763400000000,32,'228' (0xE4),'230' (0xE6)
0.020767940000000,32,' ' (0x20),@ (0x40)
0.020778440000000,33,'174' (0xAE),'0' (0x00)
0.020782140000000,33,'136' (0x88),'144' (0x90)
0.020786680000000,33,} (0x7D),'133' (0x85)
0.020791220000000,33,( (0x28),'133' (0x85)
0.020795760000000,33,'12' (0x0C),'133' (0x85)
0.020800280000000,33,'0' (0x00),'0' (0x00)
0.020804820000000,33,'0' (0x00),'0' (0x00)
0.020809360000000,33,'0' (0x00),'0' (0x00)
0.020813900000000,33,'0' (0x00),'0' (0x00)
0.020818440000000,33,'0' (0x00),'0' (0x00)
0.020822980000000,33,'0' (0x00),'0' (0x00)
0.020827500000000,33,'7' (0x07),'5' (0x05)
0.020841000000000,34,'129' (0x81),'0' (0x00)
0.020844700000000,34,'144' (0x90),'12' (0x0C)
0.020855200000000,35,'137' (0x89),} (0x7D)
0.020858900000000,35,'0' (0x00),'0' (0x00)
0.020869400000000,36,'165' (0xA5),} (0x7D)
0.020873100000000,36,'134' (0x86),'6' (0x06)
0.029815940000000,37,'129' (0x81),} (0x7D)
0.029819640000000,37,'0' (0x00),'144' (0x90)
0.029824180000000,37,'0' (0x00),'0' (0x00)
0.029828700000000,37,'0' (0x00),'0' (0x00)
0.029833240000000,37,'210' (0xD2),'210' (0xD2)
0.029837760000000,37,'14' (0x0E),'14' (0x0E)
0.029842280000000,37,E (0x45),E (0x45)
0.029846820000000,37,'230' (0xE6),'228' (0xE4)
0.029851340000000,37,@ (0x40),' ' (0x20)
0.029855860000000,37,'0' (0x00),'0' (0x00)
0.029866360000000,38,'165' (0xA5),} (0x7D)
0.029870060000000,38,'6' (0x06),'134' (0x86)
0.029880560000000,39,'174' (0xAE),} (0x7D)
0.029885220000000,40,'8' (0x08),'135' (0x87)
0.029889760000000,40,X (0x58),'210' (0xD2)
0.029894280000000,40,X (0x58),'128' (0x80)
0.029898820000000,40,P (0x50),'192' (0xC0)
0.029903360000000,40,'0' (0x00),'0' (0x00)
0.029907900000000,40,'0' (0x00),'0' (0x00)
0.029912420000000,40,'0' (0x00),'0' (0x00)
0.029916960000000,40,'0' (0x00),'0' (0x00)
0.029921500000000,40,'0' (0x00),'0' (0x00)
0.029926040000000,40,'0' (0x00),'0' (0x00)
0.529849320000000,,'135' (0x87),} (0x7D)
0.529853020000000,,'227' (0xE3),'228' (0xE4)
0.529857540000000,,@ (0x40),' ' (0x20)
0.529862080000000,,'0' (0x00),'0' (0x00)
