Time [s],Packet ID,MOSI,MISO
-0.000016460000000,0,'135','0'
-0.000012760000000,0,'230','230'
-0.000008220000000,0,'128',' '
-0.000003700000000,0,'0','0'
0.000021260000000,1,'129','0'
0.000024960000000,1,'12','0'
0.000057520000000,2,'184','0'
0.000061200000000,2,'5','5'
0.000065740000000,2,'0','0'
0.000070260000000,2,'0','0'
0.000074780000000,2,'0','0'
0.000079320000000,2,'4','4'
0.000090400000000,3,'128','0'
0.000094080000000,3,},'0'
0.000098620000000,3,(,}
0.000103140000000,3,'12',}
0.000107680000000,3,'2',}
0.000112200000000,3,'179',}
0.000730660000000,4,'135','179'
0.000734360000000,4,'228','230'
0.000738900000000,4,'128','128'
0.000749400000000,5,'174','0'
0.000753080000000,5,'136','144'
0.000757620000000,5,},'133'
0.000762160000000,5,(,'133'
0.000766680000000,5,'12','133'
0.000771220000000,5,'0','0'
0.000775740000000,5,'0','0'
0.000780260000000,5,'0','0'
0.000784800000000,5,'0','0'
0.000789340000000,5,'0','0'
0.000793860000000,5,'0','0'
0.000798400000000,5,'7','5'
0.000811860000000,6,'129','0'
0.000815560000000,6,'144','12'
0.000826040000000,7,'137',}
0.000829740000000,7,'0','0'
0.000840220000000,8,'165',}
0.000843920000000,8,'134','6'
0.009812340000000,9,'129',}
0.009816040000000,9,'0','144'
0.009820560000000,9,'0','0'
0.009825100000000,9,'0','0'
0.009829620000000,9,'210','210'
0.009834160000000,9,'14','14'
0.009838680000000,9,E,E
0.009843220000000,9,'230','228'
0.009847740000000,9,'128','128'
0.009852280000000,9,'0','0'
0.009862780000000,10,'165',}
0.009866460000000,10,'6','134'
0.009876960000000,11,'174',}
0.009880660000000,11,'144','136'
0.009885420000000,12,'11','250'
0.009889960000000,12,'11',P
0.009894480000000,12,\n,'24'
0.009899020000000,12,'0','0'
0.009903540000000,12,'0','0'
0.009908080000000,12,'0','0'
0.009912620000000,12,'0','0'
0.009917140000000,12,'0','0'
0.009921680000000,12,'0','0'
0.019855240000000,13,'135',}
0.019858940000000,13,'230','228'
0.019863480000000,13,'128','128'
0.019868000000000,13,'0','0'
0.019892920000000,14,'129',}
0.019896620000000,14,'12','0'
0.019929160000000,15,'184',}
0.019932860000000,15,'5','5'
0.019937380000000,15,'0','0'
0.019941920000000,15,'0','0'
0.019946440000000,15,'0','0'
0.019950980000000,15,'4','4'
0.019962060000000,16,'128',}
0.019965760000000,16,},}
0.019970280000000,16,(,}
0.019974800000000,16,'12',}
0.019979340000000,16,'2',}
0.019983860000000,16,'179',}
0.020602300000000,17,'135','179'
0.020606000000000,17,'228','230'
0.020610540000000,17,'128','128'
0.020621020000000,18,'174','0'
0.020624720000000,18,'136','144'
0.020629240000000,18,},'133'
0.020633780000000,18,(,'133'
0.020638320000000,18,'12','133'
0.020642840000000,18,'0','0'
0.020647380000000,18,'0','0'
0.020651900000000,18,'0','0'
0.020656440000000,18,'0','0'
0.020660960000000,18,'0','0'
0.020665500000000,18,'0','0'
0.020670020000000,18,'7','5'
0.020683500000000,19,'129','0'
0.020687200000000,19,'144','12'
0.020697680000000,20,'137',}
0.020701380000000,20,'0','0'
0.020711860000000,21,'165',}
0.020715560000000,21,'134','6'
0.029815180000000,22,'129',}
0.029818880000000,22,'0','144'
0.029823420000000,22,'0','0'
0.029827960000000,22,'0','0'
0.029832480000000,22,'210','210'
0.029837020000000,22,'14','14'
0.029841540000000,22,E,E
0.029846060000000,22,'230','228'
0.029850600000000,22,'128','128'
0.029855120000000,22,'0','0'
0.029865620000000,23,'165',}
0.029869300000000,23,'6','134'
0.029879800000000,24,'174',}
0.029883720000000,25,!,'16'
0.029889440000000,26,a,J
0.029893980000000,26,a,'3'
0.029898500000000,27,@,'0'
0.029903040000000,27,'0','0'
0.029907560000000,27,'0','0'
0.029912080000000,27,'0','0'
0.029916620000000,27,'0','0'
0.029921160000000,27,'0','0'
0.029925680000000,27,'1','1'
0.059841700000000,28,'135',}
0.059845400000000,28,'230','228'
0.059849920000000,28,'128','128'
0.059854440000000,28,'0','0'
0.059879340000000,29,'129',}
0.059883040000000,29,'12','0'
0.059915580000000,30,'184',}
0.059919280000000,30,'5','5'
0.059923800000000,30,'0','0'
0.059928340000000,30,'0','0'
0.059932860000000,30,'0','0'
0.059937400000000,30,'4','4'
0.059948480000000,31,'128',}
0.059952180000000,31,},}
0.059956700000000,31,(,}
0.059961240000000,31,'12',}
0.059965760000000,31,'2',}
0.059970300000000,31,'179',}
0.060588840000000,32,'135','179'
0.060592540000000,32,'228','230'
0.060597060000000,32,'128','128'
0.060607560000000,33,'174','0'
0.060611260000000,33,'136','144'
0.060615780000000,33,},'133'
0.060620320000000,33,(,'133'
0.060624840000000,33,'12','133'
0.060629380000000,33,'0','0'
0.060633900000000,33,'0','0'
0.060638420000000,33,'0','0'
0.060642960000000,33,'0','0'
0.060647480000000,33,'0','0'
0.060652000000000,33,'0','0'
0.060656540000000,33,'7','5'
0.060670000000000,34,'129','0'
0.060673700000000,34,'144','12'
0.060684180000000,35,'137',}
0.060687860000000,35,'0','0'
0.060698340000000,36,'165',}
0.060702040000000,36,'134','6'
0.069833120000000,37,'129',}
0.069836820000000,37,'0','144'
0.069841360000000,37,'0','0'
0.069845900000000,37,'0','0'
0.069850420000000,37,'210','210'
0.069854960000000,37,'14','14'
0.069859500000000,37,E,E
0.069864040000000,37,'230','228'
0.069868580000000,37,'128','128'
0.069873100000000,37,'0','0'
0.069883580000000,38,'165',}
0.069887280000000,38,'6','134'
0.069897760000000,39,'174',}
0.069901700000000,40,!,'16'
0.069906240000000,40,'11','250'
0.069910760000000,40,'11',P
0.069915300000000,40,\n,'24'
0.069919840000000,40,'0','0'
0.069924360000000,40,'0','0'
0.069928900000000,40,'0','0'
0.069933420000000,40,'0','0'
0.069937960000000,40,'0','0'
0.069942480000000,40,'0','0'
0.569861080000000,,'135',}
0.569864780000000,,'227','228'
0.569869300000000,,@,'128'
0.569873840000000,,'0','0'
