Time [s], Analyzer Name, Decoded Protocol Result
-0.000016440000000,SPI,MOSI: '135' (0x87);  MISO: } (0x7D)
-0.000012760000000,SPI,MOSI: '230' (0xE6);  MISO: '228' (0xE4)
-0.000008220000000,SPI,MOSI: '128' (0x80);  MISO: ' ' (0x20)
-0.000003700000000,SPI,MOSI: '0' (0x00);  MISO: '0' (0x00)
0.000021220000000,SPI,MOSI: '129' (0x81);  MISO: } (0x7D)
0.000024920000000,SPI,MOSI: '12' (0x0C);  MISO: '0' (0x00)
0.000057480000000,SPI,MOSI: '184' (0xB8);  MISO: } (0x7D)
0.000061180000000,SPI,MOSI: '5' (0x05);  MISO: '5' (0x05)
0.000065720000000,SPI,MOSI: '0' (0x00);  MISO: '0' (0x00)
0.000070260000000,SPI,MOSI: '0' (0x00);  MISO: '0' (0x00)
0.000074780000000,SPI,MOSI: '0' (0x00);  MISO: '0' (0x00)
0.000079320000000,SPI,MOSI: '4' (0x04);  MISO: '4' (0x04)
0.000090420000000,SPI,MOSI: '128' (0x80);  MISO: } (0x7D)
0.000094120000000,SPI,MOSI: } (0x7D);  MISO: } (0x7D)
0.000098660000000,SPI,MOSI: ( (0x28);  MISO: } (0x7D)
0.000103200000000,SPI,MOSI: '12' (0x0C);  MISO: } (0x7D)
0.000107720000000,SPI,MOSI: '2' (0x02);  MISO: } (0x7D)
0.000112260000000,SPI,MOSI: '179' (0xB3);  MISO: } (0x7D)
0.000730440000000,SPI,MOSI: '135' (0x87);  MISO: '179' (0xB3)
0.000734140000000,SPI,MOSI: '228' (0xE4);  MISO: '230' (0xE6)
0.000738660000000,SPI,MOSI: '128' (0x80);  MISO: '128' (0x80)
0.000749160000000,SPI,MOSI: '174' (0xAE);  MISO: '0' (0x00)
0.000752860000000,SPI,MOSI: '136' (0x88);  MISO: '144' (0x90)
0.000757380000000,SPI,MOSI: } (0x7D);  MISO: '133' (0x85)
0.000761920000000,SPI,MOSI: ( (0x28);  MISO: '133' (0x85)
0.000766440000000,SPI,MOSI: '12' (0x0C);  MISO: '133' (0x85)
0.000770980000000,SPI,MOSI: '0' (0x00);  MISO: '0' (0x00)
0.000775500000000,SPI,MOSI: '0' (0x00);  MISO: '0' (0x00)
0.000780040000000,SPI,MOSI: '0' (0x00);  MISO: '0' (0x00)
0.000784580000000,SPI,MOSI: '0' (0x00);  MISO: '0' (0x00)
0.000789100000000,SPI,MOSI: '0' (0x00);  MISO: '0' (0x00)
0.000793640000000,SPI,MOSI: '0' (0x00);  MISO: '0' (0x00)
0.000798160000000,SPI,MOSI: '7' (0x07);  MISO: '5' (0x05)
0.000811620000000,SPI,MOSI: '129' (0x81);  MISO: '0' (0x00)
0.000815320000000,SPI,MOSI: '144' (0x90);  MISO: '12' (0x0C)
0.000825820000000,SPI,MOSI: '137' (0x89);  MISO: } (0x7D)
0.000829500000000,SPI,MOSI: '0' (0x00);  MISO: '0' (0x00)
0.000840000000000,SPI,MOSI: '165' (0xA5);  MISO: } (0x7D)
0.000843680000000,SPI,MOSI: '134' (0x86);  MISO: '6' (0x06)
0.009787000000000,SPI,MOSI: '129' (0x81);  MISO: } (0x7D)
0.009790700000000,SPI,MOSI: '0' (0x00);  MISO: '144' (0x90)
0.009795220000000,SPI,MOSI: '0' (0x00);  MISO: '0' (0x00)
0.009799740000000,SPI,MOSI: '0' (0x00);  MISO: '0' (0x00)
0.009804280000000,SPI,MOSI: '210' (0xD2);  MISO: '210' (0xD2)
0.009808800000000,SPI,MOSI: '14' (0x0E);  MISO: '14' (0x0E)
0.009813320000000,SPI,MOSI: E (0x45);  MISO: E (0x45)
0.009817860000000,SPI,MOSI: '230' (0xE6);  MISO: '228' (0xE4)
0.009822380000000,SPI,MOSI: '128' (0x80);  MISO: '128' (0x80)
0.009826900000000,SPI,MOSI: '0' (0x00);  MISO: '0' (0x00)
0.009837380000000,SPI,MOSI: '165' (0xA5);  MISO: } (0x7D)
0.009841080000000,SPI,MOSI: '6' (0x06);  MISO: '134' (0x86)
0.009851560000000,SPI,MOSI: '174' (0xAE);  MISO: } (0x7D)
0.009855480000000,SPI,MOSI: ! (0x21);  MISO: '16' (0x10)
0.009860000000000,SPI,MOSI: '11' (0x0B);  MISO: '250' (0xFA)
0.009865720000000,SPI,MOSI: a (0x61);  MISO: '3' (0x03)
0.009870260000000,SPI,MOSI: @ (0x40);  MISO: '0' (0x00)
0.009874780000000,SPI,MOSI: '0' (0x00);  MISO: '0' (0x00)
0.009879320000000,SPI,MOSI: '0' (0x00);  MISO: '0' (0x00)
0.009883840000000,SPI,MOSI: '0' (0x00);  MISO: '0' (0x00)
0.009888380000000,SPI,MOSI: '0' (0x00);  MISO: '0' (0x00)
0.009892900000000,SPI,MOSI: '0' (0x00);  MISO: '0' (0x00)
0.009897440000000,SPI,MOSI: '1' (0x01);  MISO: '1' (0x01)
0.039831140000000,SPI,MOSI: '135' (0x87);  MISO: } (0x7D)
0.039834840000000,SPI,MOSI: '230' (0xE6);  MISO: '228' (0xE4)
0.039839380000000,SPI,MOSI: '128' (0x80);  MISO: '128' (0x80)
0.039843900000000,SPI,MOSI: '0' (0x00);  MISO: '0' (0x00)
0.039868780000000,SPI,MOSI: '129' (0x81);  MISO: } (0x7D)
0.039872480000000,SPI,MOSI: '12' (0x0C);  MISO: '0' (0x00)
0.039905000000000,SPI,MOSI: '184' (0xB8);  MISO: } (0x7D)
0.039908680000000,SPI,MOSI: '5' (0x05);  MISO: '5' (0x05)
0.039913200000000,SPI,MOSI: '0' (0x00);  MISO: '0' (0x00)
0.039917740000000,SPI,MOSI: '0' (0x00);  MISO: '0' (0x00)
0.039922260000000,SPI,MOSI: '0' (0x00);  MISO: '0' (0x00)
0.039926780000000,SPI,MOSI: '4' (0x04);  MISO: '4' (0x04)
0.039937860000000,SPI,MOSI: '128' (0x80);  MISO: } (0x7D)
0.039941560000000,SPI,MOSI: } (0x7D);  MISO: } (0x7D)
0.039946080000000,SPI,MOSI: ( (0x28);  MISO: } (0x7D)
0.039950600000000,SPI,MOSI: '12' (0x0C);  MISO: } (0x7D)
0.039955120000000,SPI,MOSI: '2' (0x02);  MISO: } (0x7D)
0.039959660000000,SPI,MOSI: '179' (0xB3);  MISO: } (0x7D)
0.040578360000000,SPI,MOSI: '135' (0x87);  MISO: '179' (0xB3)
0.040582060000000,SPI,MOSI: '228' (0xE4);  MISO: '230' (0xE6)
0.040586600000000,SPI,MOSI: '128' (0x80);  MISO: '128' (0x80)
0.040597100000000,SPI,MOSI: '174' (0xAE);  MISO: '0' (0x00)
0.040600780000000,SPI,MOSI: '136' (0x88);  MISO: '144' (0x90)
0.040605320000000,SPI,MOSI: } (0x7D);  MISO: '133' (0x85)
0.040609860000000,SPI,MOSI: ( (0x28);  MISO: '133' (0x85)
0.040614380000000,SPI,MOSI: '12' (0x0C);  MISO: '133' (0x85)
0.040618920000000,SPI,MOSI: '0' (0x00);  MISO: '0' (0x00)
0.040623460000000,SPI,MOSI: '0' (0x00);  MISO: '0' (0x00)
0.040627980000000,SPI,MOSI: '0' (0x00);  MISO: '0' (0x00)
0.040632520000000,SPI,MOSI: '0' (0x00);  MISO: '0' (0x00)
0.040637040000000,SPI,MOSI: '0' (0x00);  MISO: '0' (0x00)
0.040641580000000,SPI,MOSI: '0' (0x00);  MISO: '0' (0x00)
0.040646100000000,SPI,MOSI: '7' (0x07);  MISO: '5' (0x05)
0.040659580000000,SPI,MOSI: '129' (0x81);  MISO: '0' (0x00)
0.040663280000000,SPI,MOSI: '144' (0x90);  MISO: '12' (0x0C)
0.040673760000000,SPI,MOSI: '137' (0x89);  MISO: } (0x7D)
0.040677460000000,SPI,MOSI: '0' (0x00);  MISO: '0' (0x00)
0.040687940000000,SPI,MOSI: '165' (0xA5);  MISO: } (0x7D)
0.040691640000000,SPI,MOSI: '134' (0x86);  MISO: '6' (0x06)
0.049791980000000,SPI,MOSI: '129' (0x81);  MISO: } (0x7D)
0.049795680000000,SPI,MOSI: '0' (0x00);  MISO: '144' (0x90)
0.049800220000000,SPI,MOSI: '0' (0x00);  MISO: '0' (0x00)
0.049804740000000,SPI,MOSI: '0' (0x00);  MISO: '0' (0x00)
0.049809280000000,SPI,MOSI: '210' (0xD2);  MISO: '210' (0xD2)
0.049813800000000,SPI,MOSI: '14' (0x0E);  MISO: '14' (0x0E)
0.049818340000000,SPI,MOSI: E (0x45);  MISO: E (0x45)
0.049822860000000,SPI,MOSI: '230' (0xE6);  MISO: '228' (0xE4)
0.049827400000000,SPI,MOSI: '128' (0x80);  MISO: '128' (0x80)
0.049831920000000,SPI,MOSI: '0' (0x00);  MISO: '0' (0x00)
0.049842420000000,SPI,MOSI: '165' (0xA5);  MISO: } (0x7D)
0.049846120000000,SPI,MOSI: '6' (0x06);  MISO: '134' (0x86)
0.049856600000000,SPI,MOSI: '174' (0xAE);  MISO: } (0x7D)
0.049861240000000,SPI,MOSI: '8' (0x08);  MISO: '135' (0x87)
0.049866240000000,SPI,MOSI: a (0x61);  MISO: J (0x4A)
0.049870760000000,SPI,MOSI: a (0x61);  MISO: '3' (0x03)
0.049875300000000,SPI,MOSI: @ (0x40);  MISO: '0' (0x00)
0.049879820000000,SPI,MOSI: '0' (0x00);  MISO: '0' (0x00)
0.049884340000000,SPI,MOSI: '0' (0x00);  MISO: '0' (0x00)
0.049888860000000,SPI,MOSI: '0' (0x00);  MISO: '0' (0x00)
0.049893400000000,SPI,MOSI: '0' (0x00);  MISO: '0' (0x00)
0.049897920000000,SPI,MOSI: '0' (0x00);  MISO: '0' (0x00)
0.049902440000000,SPI,MOSI: '1' (0x01);  MISO: '1' (0x01)
0.069815780000000,SPI,MOSI: '135' (0x87);  MISO: } (0x7D)
0.069819480000000,SPI,MOSI: '230' (0xE6);  MISO: '228' (0xE4)
0.069824020000000,SPI,MOSI: '128' (0x80);  MISO: '128' (0x80)
0.069828540000000,SPI,MOSI: '0' (0x00);  MISO: '0' (0x00)
0.069853480000000,SPI,MOSI: '129' (0x81);  MISO: } (0x7D)
0.069857180000000,SPI,MOSI: '12' (0x0C);  MISO: '0' (0x00)
0.069889720000000,SPI,MOSI: '184' (0xB8);  MISO: } (0x7D)
0.069893420000000,SPI,MOSI: '5' (0x05);  MISO: '5' (0x05)
0.069897960000000,SPI,MOSI: '0' (0x00);  MISO: '0' (0x00)
0.069902480000000,SPI,MOSI: '0' (0x00);  MISO: '0' (0x00)
0.069907020000000,SPI,MOSI: '0' (0x00);  MISO: '0' (0x00)
0.069911540000000,SPI,MOSI: '4' (0x04);  MISO: '4' (0x04)
0.069922640000000,SPI,MOSI: '128' (0x80);  MISO: } (0x7D)
0.069926340000000,SPI,MOSI: } (0x7D);  MISO: } (0x7D)
0.069930860000000,SPI,MOSI: ( (0x28);  MISO: } (0x7D)
0.069935400000000,SPI,MOSI: '12' (0x0C);  MISO: } (0x7D)
0.069939940000000,SPI,MOSI: '2' (0x02);  MISO: } (0x7D)
0.070562800000000,SPI,MOSI: '135' (0x87);  MISO: '179' (0xB3)
0.070566500000000,SPI,MOSI: '228' (0xE4);  MISO: '230' (0xE6)
0.070571020000000,SPI,MOSI: '128' (0x80);  MISO: '128' (0x80)
0.070581500000000,SPI,MOSI: '174' (0xAE);  MISO: '0' (0x00)
0.070585200000000,SPI,MOSI: '136' (0x88);  MISO: '144' (0x90)
0.070589720000000,SPI,MOSI: } (0x7D);  MISO: '133' (0x85)
0.070594260000000,SPI,MOSI: ( (0x28);  MISO: '133' (0x85)
0.070598780000000,SPI,MOSI: '12' (0x0C);  MISO: '133' (0x85)
0.070603320000000,SPI,MOSI: '0' (0x00);  MISO: '0' (0x00)
0.070607840000000,SPI,MOSI: '0' (0x00);  MISO: '0' (0x00)
0.070612380000000,SPI,MOSI: '0' (0x00);  MISO: '0' (0x00)
0.070616900000000,SPI,MOSI: '0' (0x00);  MISO: '0' (0x00)
0.070621440000000,SPI,MOSI: '0' (0x00);  MISO: '0' (0x00)
0.070625960000000,SPI,MOSI: '0' (0x00);  MISO: '0' (0x00)
0.070630500000000,SPI,MOSI: '7' (0x07);  MISO: '5' (0x05)
0.070643960000000,SPI,MOSI: '129' (0x81);  MISO: '0' (0x00)
0.070647660000000,SPI,MOSI: '144' (0x90);  MISO: '12' (0x0C)
0.070658140000000,SPI,MOSI: '137' (0x89);  MISO: } (0x7D)
0.070661840000000,SPI,MOSI: '0' (0x00);  MISO: '0' (0x00)
0.070672320000000,SPI,MOSI: '165' (0xA5);  MISO: } (0x7D)
0.070676020000000,SPI,MOSI: '134' (0x86);  MISO: '6' (0x06)
0.079775660000000,SPI,MOSI: '129' (0x81);  MISO: } (0x7D)
0.079779360000000,SPI,MOSI: '0' (0x00);  MISO: '144' (0x90)
0.079783900000000,SPI,MOSI: '0' (0x00);  MISO: '0' (0x00)
0.079788420000000,SPI,MOSI: '0' (0x00);  MISO: '0' (0x00)
0.079792940000000,SPI,MOSI: '210' (0xD2);  MISO: '210' (0xD2)
0.079797480000000,SPI,MOSI: '14' (0x0E);  MISO: '14' (0x0E)
0.079802020000000,SPI,MOSI: E (0x45);  MISO: E (0x45)
0.079806540000000,SPI,MOSI: '230' (0xE6);  MISO: '228' (0xE4)
0.079811080000000,SPI,MOSI: '128' (0x80);  MISO: '128' (0x80)
0.079815600000000,SPI,MOSI: '0' (0x00);  MISO: '0' (0x00)
0.079826100000000,SPI,MOSI: '165' (0xA5);  MISO: } (0x7D)
0.079829780000000,SPI,MOSI: '6' (0x06);  MISO: '134' (0x86)
0.079840280000000,SPI,MOSI: '174' (0xAE);  MISO: } (0x7D)
0.079844220000000,SPI,MOSI: ! (0x21);  MISO: '16' (0x10)
0.079848760000000,SPI,MOSI: '11' (0x0B);  MISO: '250' (0xFA)
0.079854480000000,SPI,MOSI: a (0x61);  MISO: '3' (0x03)
0.079859020000000,SPI,MOSI: @ (0x40);  MISO: '0' (0x00)
0.079863540000000,SPI,MOSI: '0' (0x00);  MISO: '0' (0x00)
0.079868080000000,SPI,MOSI: '0' (0x00);  MISO: '0' (0x00)
0.079872620000000,SPI,MOSI: '0' (0x00);  MISO: '0' (0x00)
0.079877140000000,SPI,MOSI: '0' (0x00);  MISO: '0' (0x00)
0.079881680000000,SPI,MOSI: '0' (0x00);  MISO: '0' (0x00)
0.079886220000000,SPI,MOSI: '1' (0x01);  MISO: '1' (0x01)
0.579846620000000,SPI,MOSI: '135' (0x87);  MISO: } (0x7D)
0.579850300000000,SPI,MOSI: '227' (0xE3);  MISO: '228' (0xE4)
0.579854840000000,SPI,MOSI: @ (0x40);  MISO: '128' (0x80)
0.579859380000000,SPI,MOSI: '0' (0x00);  MISO: '0' (0x00)
