Time [s], Analyzer Name, Decoded Protocol Result
-0.000016440000000,SPI,MOSI: '135';  MISO: }
-0.000012740000000,SPI,MOSI: '230';  MISO: '228'
-0.000008220000000,SPI,MOSI: '192';  MISO: '128'
-0.000003680000000,SPI,MOSI: '0';  MISO: '0'
0.000021220000000,SPI,MOSI: '129';  MISO: }
0.000024920000000,SPI,MOSI: '12';  MISO: '0'
0.000057500000000,SPI,MOSI: '184';  MISO: }
0.000061200000000,SPI,MOSI: '5';  MISO: '5'
0.000065740000000,SPI,MOSI: '0';  MISO: '0'
0.000070260000000,SPI,MOSI: '0';  MISO: '0'
0.000074800000000,SPI,MOSI: '0';  MISO: '0'
0.000079340000000,SPI,MOSI: '4';  MISO: '4'
0.000090420000000,SPI,MOSI: '128';  MISO: }
0.000094120000000,SPI,MOSI: };  MISO: }
0.000098640000000,SPI,MOSI: (;  MISO: }
0.000103180000000,SPI,MOSI: '12';  MISO: }
0.000107700000000,SPI,MOSI: '2';  MISO: }
0.000730720000000,SPI,MOSI: '135';  MISO: '179'
0.000734420000000,SPI,MOSI: '228';  MISO: '230'
0.000738960000000,SPI,MOSI: '224';  MISO: '192'
0.000749460000000,SPI,MOSI: '174';  MISO: '0'
0.000753160000000,SPI,MOSI: '136';  MISO: '144'
0.000757680000000,SPI,MOSI: };  MISO: '133'
0.000762220000000,SPI,MOSI: (;  MISO: '133'
0.000766740000000,SPI,MOSI: '12';  MISO: '133'
0.000771280000000,SPI,MOSI: '0';  MISO: '0'
0.000775800000000,SPI,MOSI: '0';  MISO: '0'
0.000780340000000,SPI,MOSI: '0';  MISO: '0'
0.000784860000000,SPI,MOSI: '0';  MISO: '0'
0.000789400000000,SPI,MOSI: '0';  MISO: '0'
0.000793920000000,SPI,MOSI: '0';  MISO: '0'
0.000798460000000,SPI,MOSI: '7';  MISO: '5'
0.000811920000000,SPI,MOSI: '129';  MISO: '0'
0.000815620000000,SPI,MOSI: '144';  MISO: '12'
0.000826100000000,SPI,MOSI: '137';  MISO: }
0.000829800000000,SPI,MOSI: '0';  MISO: '0'
0.000840280000000,SPI,MOSI: '165';  MISO: }
0.000843980000000,SPI,MOSI: '134';  MISO: '6'
0.009812980000000,SPI,MOSI: '129';  MISO: }
0.009816680000000,SPI,MOSI: '0';  MISO: '144'
0.009821220000000,SPI,MOSI: '0';  MISO: '0'
0.009825740000000,SPI,MOSI: '0';  MISO: '0'
0.009830280000000,SPI,MOSI: '210';  MISO: '210'
0.009834800000000,SPI,MOSI: '14';  MISO: '14'
0.009839340000000,SPI,MOSI: E;  MISO: E
0.009843880000000,SPI,MOSI: '230';  MISO: '228'
0.009848400000000,SPI,MOSI: '192';  MISO: '224'
0.009852940000000,SPI,MOSI: '0';  MISO: '0'
0.009863420000000,SPI,MOSI: '165';  MISO: }
0.009867100000000,SPI,MOSI: '6';  MISO: '134'
0.009877580000000,SPI,MOSI: '174';  MISO: }
0.009881280000000,SPI,MOSI: '144';  MISO: '136'
0.009885800000000,SPI,MOSI: '133';  MISO: }
0.009891760000000,SPI,MOSI: a;  MISO: '3'
0.009896300000000,SPI,MOSI: @;  MISO: '0'
0.009900820000000,SPI,MOSI: '0';  MISO: '0'
0.009905340000000,SPI,MOSI: '0';  MISO: '0'
0.009909880000000,SPI,MOSI: '0';  MISO: '0'
0.009914400000000,SPI,MOSI: '0';  MISO: '0'
0.009918940000000,SPI,MOSI: '0';  MISO: '0'
0.009923460000000,SPI,MOSI: '1';  MISO: '1'
0.010003040000000,SPI,MOSI: '135';  MISO: }
0.010006740000000,SPI,MOSI: '230';  MISO: '228'
0.010011280000000,SPI,MOSI: '192';  MISO: '224'
0.010015820000000,SPI,MOSI: '0';  MISO: '0'
0.010040740000000,SPI,MOSI: '129';  MISO: }
0.010044440000000,SPI,MOSI: '12';  MISO: '0'
0.010077020000000,SPI,MOSI: '184';  MISO: }
0.010080720000000,SPI,MOSI: '5';  MISO: '5'
0.010085240000000,SPI,MOSI: '0';  MISO: '0'
0.010089780000000,SPI,MOSI: '0';  MISO: '0'
0.010094320000000,SPI,MOSI: '0';  MISO: '0'
0.010098840000000,SPI,MOSI: '4';  MISO: '4'
0.010109940000000,SPI,MOSI: '128';  MISO: }
0.010113640000000,SPI,MOSI: };  MISO: }
0.010118160000000,SPI,MOSI: (;  MISO: }
0.010122700000000,SPI,MOSI: '12';  MISO: }
0.010127240000000,SPI,MOSI: '2';  MISO: }
0.010131760000000,SPI,MOSI: '179';  MISO: }
0.010750340000000,SPI,MOSI: '135';  MISO: '0'
0.010754040000000,SPI,MOSI: '228';  MISO: '230'
0.010758580000000,SPI,MOSI: '224';  MISO: '192'
0.010769080000000,SPI,MOSI: '174';  MISO: '0'
0.010772780000000,SPI,MOSI: '136';  MISO: '144'
0.010777300000000,SPI,MOSI: };  MISO: '133'
0.010781840000000,SPI,MOSI: (;  MISO: '133'
0.010786360000000,SPI,MOSI: '12';  MISO: '133'
0.010790900000000,SPI,MOSI: '0';  MISO: '0'
0.010795440000000,SPI,MOSI: '0';  MISO: '0'
0.010799960000000,SPI,MOSI: '0';  MISO: '0'
0.010804500000000,SPI,MOSI: '0';  MISO: '0'
0.010809020000000,SPI,MOSI: '0';  MISO: '0'
0.010813560000000,SPI,MOSI: '0';  MISO: '0'
0.010818080000000,SPI,MOSI: '7';  MISO: '5'
0.010831560000000,SPI,MOSI: '129';  MISO: '0'
0.010835260000000,SPI,MOSI: '144';  MISO: '12'
0.010845740000000,SPI,MOSI: '137';  MISO: }
0.010849440000000,SPI,MOSI: '0';  MISO: '0'
0.010859920000000,SPI,MOSI: '165';  MISO: }
0.010863620000000,SPI,MOSI: '134';  MISO: '6'
0.019806360000000,SPI,MOSI: '129';  MISO: }
0.019810060000000,SPI,MOSI: '0';  MISO: '144'
0.019814580000000,SPI,MOSI: '0';  MISO: '0'
0.019819100000000,SPI,MOSI: '0';  MISO: '0'
0.019823640000000,SPI,MOSI: '210';  MISO: '210'
0.019828160000000,SPI,MOSI: '14';  MISO: '14'
0.019832680000000,SPI,MOSI: E;  MISO: E
0.019837220000000,SPI,MOSI: '230';  MISO: '228'
0.019841740000000,SPI,MOSI: '192';  MISO: '224'
0.019846260000000,SPI,MOSI: '0';  MISO: '0'
0.019856740000000,SPI,MOSI: '165';  MISO: }
0.019860440000000,SPI,MOSI: '6';  MISO: '134'
0.019870940000000,SPI,MOSI: '174';  MISO: }
0.019874640000000,SPI,MOSI: '144';  MISO: '136'
0.019883940000000,SPI,MOSI: '11';  MISO: P
0.019888480000000,SPI,MOSI: \n;  MISO: '24'
0.019893000000000,SPI,MOSI: '0';  MISO: '0'
0.019897540000000,SPI,MOSI: '0';  MISO: '0'
0.019902060000000,SPI,MOSI: '0';  MISO: '0'
0.019906600000000,SPI,MOSI: '0';  MISO: '0'
0.019911120000000,SPI,MOSI: '0';  MISO: '0'
0.019915660000000,SPI,MOSI: '0';  MISO: '0'
0.049856140000000,SPI,MOSI: '135';  MISO: }
0.049859840000000,SPI,MOSI: '230';  MISO: '228'
0.049864360000000,SPI,MOSI: '192';  MISO: '224'
0.049868900000000,SPI,MOSI: '0';  MISO: '0'
0.049893800000000,SPI,MOSI: '129';  MISO: }
0.049897500000000,SPI,MOSI: '12';  MISO: '0'
0.049930040000000,SPI,MOSI: '184';  MISO: }
0.049933740000000,SPI,MOSI: '5';  MISO: '5'
0.049938260000000,SPI,MOSI: '0';  MISO: '0'
0.049942800000000,SPI,MOSI: '0';  MISO: '0'
0.049947320000000,SPI,MOSI: '0';  MISO: '0'
0.049951860000000,SPI,MOSI: '4';  MISO: '4'
0.049962940000000,SPI,MOSI: '128';  MISO: }
0.049966640000000,SPI,MOSI: };  MISO: }
0.049971160000000,SPI,MOSI: (;  MISO: }
0.049975700000000,SPI,MOSI: '12';  MISO: }
0.049980220000000,SPI,MOSI: '2';  MISO: }
0.049984760000000,SPI,MOSI: '179';  MISO: }
0.050603240000000,SPI,MOSI: '135';  MISO: '179'
0.050606940000000,SPI,MOSI: '228';  MISO: '230'
0.050611460000000,SPI,MOSI: '224';  MISO: '192'
0.050621960000000,SPI,MOSI: '174';  MISO: '0'
0.050625660000000,SPI,MOSI: '136';  MISO: '144'
0.050630180000000,SPI,MOSI: };  MISO: '133'
0.050634720000000,SPI,MOSI: (;  MISO: '133'
0.050639240000000,SPI,MOSI: '12';  MISO: '133'
0.050643780000000,SPI,MOSI: '0';  MISO: '0'
0.050648300000000,SPI,MOSI: '0';  MISO: '0'
0.050652840000000,SPI,MOSI: '0';  MISO: '0'
0.050657360000000,SPI,MOSI: '0';  MISO: '0'
0.050661900000000,SPI,MOSI: '0';  MISO: '0'
0.050666440000000,SPI,MOSI: '0';  MISO: '0'
0.050670960000000,SPI,MOSI: '7';  MISO: '5'
0.050684440000000,SPI,MOSI: '129';  MISO: '0'
0.050688140000000,SPI,MOSI: '144';  MISO: '12'
0.050698620000000,SPI,MOSI: '137';  MISO: }
0.050702320000000,SPI,MOSI: '0';  MISO: '0'
0.050712800000000,SPI,MOSI: '165';  MISO: }
0.050716500000000,SPI,MOSI: '134';  MISO: '6'
0.059821260000000,SPI,MOSI: '129';  MISO: }
0.059824960000000,SPI,MOSI: '0';  MISO: '144'
0.059829480000000,SPI,MOSI: '0';  MISO: '0'
0.059834000000000,SPI,MOSI: '0';  MISO: '0'
0.059838540000000,SPI,MOSI: '210';  MISO: '210'
0.059843060000000,SPI,MOSI: '14';  MISO: '14'
0.059847580000000,SPI,MOSI: E;  MISO: E
0.059852100000000,SPI,MOSI: '230';  MISO: '228'
0.059856620000000,SPI,MOSI: '192';  MISO: '224'
0.059861160000000,SPI,MOSI: '0';  MISO: '0'
0.059871620000000,SPI,MOSI: '165';  MISO: }
0.059875300000000,SPI,MOSI: '6';  MISO: '134'
0.059885780000000,SPI,MOSI: '174';  MISO: }
0.059890420000000,SPI,MOSI: '8';  MISO: '135'
0.059895420000000,SPI,MOSI: a;  MISO: J
0.059899960000000,SPI,MOSI: a;  MISO: '3'
0.059904480000000,SPI,MOSI: @;  MISO: '0'
0.059909000000000,SPI,MOSI: '0';  MISO: '0'
0.059913540000000,SPI,MOSI: '0';  MISO: '0'
0.059918080000000,SPI,MOSI: '0';  MISO: '0'
0.059922600000000,SPI,MOSI: '0';  MISO: '0'
0.059927140000000,SPI,MOSI: '0';  MISO: '0'
0.059931660000000,SPI,MOSI: '1';  MISO: '1'
0.559863900000000,SPI,MOSI: '135';  MISO: }
0.559867600000000,SPI,MOSI: '227';  MISO: '228'
0.559872140000000,SPI,MOSI: @;  MISO: '224'
0.559876680000000,SPI,MOSI: '0';  MISO: '0'
