Time [s],Packet ID,MOSI,MISO
-0.000016440000000,0,'135' (0x87),} (0x7D)
-0.000012740000000,0,'230' (0xE6),'228' (0xE4)
-0.000008220000000,0,'192' (0xC0),'128' (0x80)
-0.000003680000000,0,'0' (0x00),'0' (0x00)
0.000021220000000,1,'129' (0x81),} (0x7D)
0.000024920000000,1,'12' (0x0C),'0' (0x00)
0.000057500000000,2,'184' (0xB8),} (0x7D)
0.000061200000000,2,'5' (0x05),'5' (0x05)
0.000065740000000,2,'0' (0x00),'0' (0x00)
0.000070260000000,2,'0' (0x00),'0' (0x00)
0.000074800000000,2,'0' (0x00),'0' (0x00)
0.000079340000000,2,'4' (0x04),'4' (0x04)
0.000090420000000,3,'128' (0x80),} (0x7D)
0.000094120000000,3,} (0x7D),} (0x7D)
0.000098640000000,3,( (0x28),} (0x7D)
0.000103180000000,3,'12' (0x0C),} (0x7D)
0.000107700000000,3,'2' (0x02),} (0x7D)
0.000730720000000,4,'135' (0x87),'179' (0xB3)
0.000734420000000,4,'228' (0xE4),'230' (0xE6)
0.000738960000000,4,'224' (0xE0),'192' (0xC0)
0.000749460000000,5,'174' (0xAE),'0' (0x00)
0.000753160000000,5,'136' (0x88),'144' (0x90)
0.000757680000000,5,} (0x7D),'133' (0x85)
0.000762220000000,5,( (0x28),'133' (0x85)
0.000766740000000,5,'12' (0x0C),'133' (0x85)
0.000771280000000,5,'0' (0x00),'0' (0x00)
0.000775800000000,5,'0' (0x00),'0' (0x00)
0.000780340000000,5,'0' (0x00),'0' (0x00)
0.000784860000000,5,'0' (0x00),'0' (0x00)
0.000789400000000,5,'0' (0x00),'0' (0x00)
0.000793920000000,5,'0' (0x00),'0' (0x00)
0.000798460000000,5,'7' (0x07),'5' (0x05)
0.000811920000000,6,'129' (0x81),'0' (0x00)
0.000815620000000,6,'144' (0x90),'12' (0x0C)
0.000826100000000,7,'137' (0x89),} (0x7D)
0.000829800000000,7,'0' (0x00),'0' (0x00)
0.000840280000000,8,'165' (0xA5),} (0x7D)
0.000843980000000,8,'134' (0x86),'6' (0x06)
0.009812980000000,9,'129' (0x81),} (0x7D)
0.009816680000000,9,'0' (0x00),'144' (0x90)
0.009821220000000,9,'0' (0x00),'0' (0x00)
0.009825740000000,9,'0' (0x00),'0' (0x00)
0.009830280000000,9,'210' (0xD2),'210' (0xD2)
0.009834800000000,9,'14' (0x0E),'14' (0x0E)
0.009839340000000,9,E (0x45),E (0x45)
0.009843880000000,9,'230' (0xE6),'228' (0xE4)
0.009848400000000,9,'192' (0xC0),'224' (0xE0)
0.009852940000000,9,'0' (0x00),'0' (0x00)
0.009863420000000,10,'165' (0xA5),} (0x7D)
0.009867100000000,10,'6' (0x06),'134' (0x86)
0.009877580000000,11,'174' (0xAE),} (0x7D)
0.009881280000000,11,'144' (0x90),'136' (0x88)
0.009885800000000,11,'133' (0x85),} (0x7D)
0.009891760000000,12,a (0x61),'3' (0x03)
0.009896300000000,12,@ (0x40),'0' (0x00)
0.009900820000000,12,'0' (0x00),'0' (0x00)
0.009905340000000,12,'0' (0x00),'0' (0x00)
0.009909880000000,12,'0' (0x00),'0' (0x00)
0.009914400000000,12,'0' (0x00),'0' (0x00)
0.009918940000000,12,'0' (0x00),'0' (0x00)
0.009923460000000,12,'1' (0x01),'1' (0x01)
0.010003040000000,13,'135' (0x87),} (0x7D)
0.010006740000000,13,'230' (0xE6),'228' (0xE4)
0.010011280000000,13,'192' (0xC0),'224' (0xE0)
0.010015820000000,13,'0' (0x00),'0' (0x00)
0.010040740000000,14,'129' (0x81),} (0x7D)
0.010044440000000,14,'12' (0x0C),'0' (0x00)
0.010077020000000,15,'184' (0xB8),} (0x7D)
0.010080720000000,15,'5' (0x05),'5' (0x05)
0.010085240000000,15,'0' (0x00),'0' (0x00)
0.010089780000000,15,'0' (0x00),'0' (0x00)
0.010094320000000,15,'0' (0x00),'0' (0x00)
0.010098840000000,15,'4' (0x04),'4' (0x04)
0.010109940000000,16,'128' (0x80),} (0x7D)
0.010113640000000,16,} (0x7D),} (0x7D)
0.010118160000000,16,( (0x28),} (0x7D)
0.010122700000000,16,'12' (0x0C),} (0x7D)
0.010127240000000,16,'2' (0x02),} (0x7D)
0.010131760000000,16,'179' (0xB3),} (0x7D)
0.010750340000000,17,'135' (0x87),'0' (0x00)
0.010754040000000,17,'228' (0xE4),'230' (0xE6)
0.010758580000000,17,'224' (0xE0),'192' (0xC0)
0.010769080000000,18,'174' (0xAE),'0' (0x00)
0.010772780000000,18,'136' (0x88),'144' (0x90)
0.010777300000000,18,} (0x7D),'133' (0x85)
0.010781840000000,18,( (0x28),'133' (0x85)
0.010786360000000,18,'12' (0x0C),'133' (0x85)
0.010790900000000,18,'0' (0x00),'0' (0x00)
0.010795440000000,18,'0' (0x00),'0' (0x00)
0.010799960000000,18,'0' (0x00),'0' (0x00)
0.010804500000000,18,'0' (0x00),'0' (0x00)
0.010809020000000,18,'0' (0x00),'0' (0x00)
0.010813560000000,18,'0' (0x00),'0' (0x00)
0.010818080000000,18,'7' (0x07),'5' (0x05)
0.010831560000000,19,'129' (0x81),'0' (0x00)
0.010835260000000,19,'144' (0x90),'12' (0x0C)
0.010845740000000,20,'137' (0x89),} (0x7D)
0.010849440000000,20,'0' (0x00),'0' (0x00)
0.010859920000000,21,'165' (0xA5),} (0x7D)
0.010863620000000,21,'134' (0x86),'6' (0x06)
0.019806360000000,22,'129' (0x81),} (0x7D)
0.019810060000000,22,'0' (0x00),'144' (0x90)
0.019814580000000,22,'0' (0x00),'0' (0x00)
0.019819100000000,22,'0' (0x00),'0' (0x00)
0.019823640000000,22,'210' (0xD2),'210' (0xD2)
0.019828160000000,22,'14' (0x0E),'14' (0x0E)
0.019832680000000,22,E (0x45),E (0x45)
0.019837220000000,22,'230' (0xE6),'228' (0xE4)
0.019841740000000,22,'192' (0xC0),'224' (0xE0)
0.019846260000000,22,'0' (0x00),'0' (0x00)
0.019856740000000,23,'165' (0xA5),} (0x7D)
0.019860440000000,23,'6' (0x06),'134' (0x86)
0.019870940000000,24,'174' (0xAE),} (0x7D)
0.019874640000000,24,'144' (0x90),'136' (0x88)
0.019883940000000,25,'11' (0x0B),P (0x50)
0.019888480000000,25,\n (0x0A),'24' (0x18)
0.019893000000000,25,'0' (0x00),'0' (0x00)
0.019897540000000,25,'0' (0x00),'0' (0x00)
0.019902060000000,25,'0' (0x00),'0' (0x00)
0.019906600000000,25,'0' (0x00),'0' (0x00)
0.019911120000000,25,'0' (0x00),'0' (0x00)
0.019915660000000,25,'0' (0x00),'0' (0x00)
0.049856140000000,26,'135' (0x87),} (0x7D)
0.049859840000000,26,'230' (0xE6),'228' (0xE4)
0.049864360000000,26,'192' (0xC0),'224' (0xE0)
0.049868900000000,26,'0' (0x00),'0' (0x00)
0.049893800000000,27,'129' (0x81),} (0x7D)
0.049897500000000,27,'12' (0x0C),'0' (0x00)
0.049930040000000,28,'184' (0xB8),} (0x7D)
0.049933740000000,28,'5' (0x05),'5' (0x05)
0.049938260000000,28,'0' (0x00),'0' (0x00)
0.049942800000000,28,'0' (0x00),'0' (0x00)
0.049947320000000,28,'0' (0x00),'0' (0x00)
0.049951860000000,28,'4' (0x04),'4' (0x04)
0.049962940000000,29,'128' (0x80),} (0x7D)
0.049966640000000,29,} (0x7D),} (0x7D)
0.049971160000000,29,( (0x28),} (0x7D)
0.049975700000000,29,'12' (0x0C),} (0x7D)
0.049980220000000,29,'2' (0x02),} (0x7D)
0.049984760000000,29,'179' (0xB3),} (0x7D)
0.050603240000000,30,'135' (0x87),'179' (0xB3)
0.050606940000000,30,'228' (0xE4),'230' (0xE6)
0.050611460000000,30,'224' (0xE0),'192' (0xC0)
0.050621960000000,31,'174' (0xAE),'0' (0x00)
0.050625660000000,31,'136' (0x88),'144' (0x90)
0.050630180000000,31,} (0x7D),'133' (0x85)
0.050634720000000,31,( (0x28),'133' (0x85)
0.050639240000000,31,'12' (0x0C),'133' (0x85)
0.050643780000000,31,'0' (0x00),'0' (0x00)
0.050648300000000,31,'0' (0x00),'0' (0x00)
0.050652840000000,31,'0' (0x00),'0' (0x00)
0.050657360000000,31,'0' (0x00),'0' (0x00)
0.050661900000000,31,'0' (0x00),'0' (0x00)
0.050666440000000,31,'0' (0x00),'0' (0x00)
0.050670960000000,31,'7' (0x07),'5' (0x05)
0.050684440000000,32,'129' (0x81),'0' (0x00)
0.050688140000000,32,'144' (0x90),'12' (0x0C)
0.050698620000000,33,'137' (0x89),} (0x7D)
0.050702320000000,33,'0' (0x00),'0' (0x00)
0.050712800000000,34,'165' (0xA5),} (0x7D)
0.050716500000000,34,'134' (0x86),'6' (0x06)
0.059821260000000,35,'129' (0x81),} (0x7D)
0.059824960000000,35,'0' (0x00),'144' (0x90)
0.059829480000000,35,'0' (0x00),'0' (0x00)
0.059834000000000,35,'0' (0x00),'0' (0x00)
0.059838540000000,35,'210' (0xD2),'210' (0xD2)
0.059843060000000,35,'14' (0x0E),'14' (0x0E)
0.059847580000000,35,E (0x45),E (0x45)
0.059852100000000,35,'230' (0xE6),'228' (0xE4)
0.059856620000000,35,'192' (0xC0),'224' (0xE0)
0.059861160000000,35,'0' (0x00),'0' (0x00)
0.059871620000000,36,'165' (0xA5),} (0x7D)
0.059875300000000,36,'6' (0x06),'134' (0x86)
0.059885780000000,37,'174' (0xAE),} (0x7D)
0.059890420000000,38,'8' (0x08),'135' (0x87)
0.059895420000000,39,a (0x61),J (0x4A)
0.059899960000000,39,a (0x61),'3' (0x03)
0.059904480000000,39,@ (0x40),'0' (0x00)
0.059909000000000,39,'0' (0x00),'0' (0x00)
0.059913540000000,39,'0' (0x00),'0' (0x00)
0.059918080000000,39,'0' (0x00),'0' (0x00)
0.059922600000000,39,'0' (0x00),'0' (0x00)
0.059927140000000,39,'0' (0x00),'0' (0x00)
0.059931660000000,39,'1' (0x01),'1' (0x01)
0.559863900000000,,'135' (0x87),} (0x7D)
0.559867600000000,,'227' (0xE3),'228' (0xE4)
0.559872140000000,,@ (0x40),'224' (0xE0)
0.559876680000000,,'0' (0x00),'0' (0x00)
