Time [s],Packet ID,MOSI,MISO
-0.000016460000000,0,'135',}
-0.000012760000000,0,'226','228'
-0.000008240000000,0,'192','224'
-0.000003700000000,0,'0','0'
0.000021220000000,1,'129',}
0.000024920000000,1,'12','0'
0.000057440000000,2,'184',}
0.000061140000000,2,'5','5'
0.000065680000000,2,'0','0'
0.000070200000000,2,'0','0'
0.000074740000000,2,'0','0'
0.000079260000000,2,'4','4'
0.000090360000000,3,'128',}
0.000094060000000,3,},}
0.000098580000000,3,(,}
0.000103120000000,3,'12',}
0.000107640000000,3,'2',}
0.000112180000000,3,'179',}
0.000730900000000,4,'135','179'
0.000734580000000,4,'229','226'
0.000739120000000,4,' ','192'
0.000749600000000,5,'174','179'
0.000753300000000,5,'136','144'
0.000757820000000,5,},'133'
0.000762360000000,5,(,'133'
0.000766880000000,5,'12','133'
0.000771420000000,5,'0','0'
0.000775940000000,5,'0','0'
0.000780480000000,5,'0','0'
0.000785000000000,5,'0','0'
0.000789540000000,5,'0','0'
0.000794060000000,5,'0','0'
0.000798600000000,5,'7','5'
0.000824480000000,6,'129','0'
0.000828180000000,6,'144','12'
0.000838680000000,7,'137',}
0.000842400000000,7,'0','0'
0.000852880000000,8,'165',}
0.000856600000000,8,'134','6'
0.009798420000000,9,'129',}
0.009802120000000,9,'0','144'
0.009806660000000,9,'0','0'
0.009811180000000,9,'0','0'
0.009815720000000,9,'210','210'
0.009820260000000,9,'14','14'
0.009824780000000,9,E,E
0.009829320000000,9,'226','229'
0.009833860000000,9,'192',' '
0.009838380000000,9,'0','0'
0.009848880000000,10,'165',}
0.009852580000000,10,'6','134'
0.009863060000000,11,'174',}
0.009867000000000,12,!,'16'
0.009872720000000,13,a,J
0.009877260000000,13,a,'3'
0.009881780000000,13,@,'0'
0.009886320000000,13,'0','0'
0.009890860000000,13,'0','0'
0.009895380000000,13,'0','0'
0.009899920000000,13,'0','0'
0.009904440000000,13,'0','0'
0.009908980000000,13,'1','1'
0.009988460000000,14,'135',}
0.009992160000000,14,'226','229'
0.009996680000000,14,'192',' '
0.010001200000000,14,'0','0'
0.010026100000000,15,'129',}
0.010029800000000,15,'12','0'
0.010062360000000,16,'184',}
0.010066060000000,16,'5','5'
0.010070580000000,16,'0','0'
0.010075120000000,16,'0','0'
0.010079660000000,16,'0','0'
0.010084200000000,16,'4','4'
0.010095280000000,17,'128',}
0.010098980000000,17,},}
0.010103520000000,17,(,}
0.010108040000000,17,'12',}
0.010112580000000,17,'2',}
0.010735340000000,18,'135','0'
0.010739040000000,18,'229','226'
0.010743560000000,18,' ','192'
0.010754060000000,19,'174','0'
0.010757740000000,19,'136','144'
0.010762280000000,19,},'133'
0.010766820000000,19,(,'133'
0.010771340000000,19,'12','133'
0.010775880000000,19,'0','0'
0.010780400000000,19,'0','0'
0.010784940000000,19,'0','0'
0.010789460000000,19,'0','0'
0.010794000000000,19,'0','0'
0.010798520000000,19,'0','0'
0.010803060000000,19,'7','5'
0.010816540000000,20,'129','0'
0.010820220000000,20,'144','12'
0.010830700000000,21,'137',}
0.010834380000000,21,'0','0'
0.010844860000000,22,'165',}
0.010848560000000,22,'134','6'
0.019794920000000,23,'129',}
0.019798620000000,23,'0','144'
0.019803160000000,23,'0','0'
0.019807680000000,23,'0','0'
0.019812220000000,23,'210','210'
0.019816760000000,23,'14','14'
0.019821280000000,23,E,E
0.019825820000000,23,'226','229'
0.019830340000000,23,'192',' '
0.019834880000000,23,'0','0'
0.019845380000000,24,'165',}
0.019849080000000,24,'6','134'
0.019859580000000,25,'174',}
0.019864220000000,26,'8','135'
0.019868760000000,26,X,'210'
0.019873760000000,27,a,'3'
0.019878300000000,27,@,'0'
0.019882820000000,27,'0','0'
0.019887360000000,27,'0','0'
0.019891900000000,27,'0','0'
0.019896420000000,27,'0','0'
0.019900960000000,27,'0','0'
0.019905500000000,27,'1','1'
0.059848540000000,28,'135',}
0.059852240000000,28,'226','229'
0.059856780000000,28,'192',' '
0.059861300000000,28,'0','0'
0.059886220000000,29,'129',}
0.059889920000000,29,'12','0'
0.059922420000000,30,'184',}
0.059926120000000,30,'5','5'
0.059930640000000,30,'0','0'
0.059935160000000,30,'0','0'
0.059939680000000,30,'0','0'
0.059944200000000,30,'4','4'
0.059955280000000,31,'128',}
0.059958960000000,31,},}
0.059963480000000,31,(,}
0.059968020000000,31,'12',}
0.059972540000000,31,'2',}
0.059977060000000,31,'179',}
0.060595340000000,32,'135','179'
0.060599040000000,32,'229','226'
0.060603560000000,32,' ','192'
0.060614060000000,33,'174','179'
0.060617740000000,33,'136','144'
0.060622280000000,33,},'133'
0.060626800000000,33,(,'133'
0.060631340000000,33,'12','133'
0.060635860000000,33,'0','0'
0.060640380000000,33,'0','0'
0.060644920000000,33,'0','0'
0.060649440000000,33,'0','0'
0.060653980000000,33,'0','0'
0.060658500000000,33,'0','0'
0.060663020000000,33,'7','5'
0.060692000000000,34,'129','0'
0.060695680000000,34,'144','12'
0.060706180000000,35,'137',}
0.060709880000000,35,'0','0'
0.060720360000000,36,'165',}
0.060724060000000,36,'134','6'
0.069799140000000,37,'129',}
0.069802840000000,37,'0','144'
0.069807360000000,37,'0','0'
0.069811880000000,37,'0','0'
0.069816420000000,37,'210','210'
0.069820960000000,37,'14','14'
0.069825480000000,37,E,E
0.069830000000000,37,'226','229'
0.069834540000000,37,'192',' '
0.069839060000000,37,'0','0'
0.069849560000000,38,'165',}
0.069853260000000,38,'6','134'
0.069863740000000,39,'174',}
0.069867440000000,39,'144','136'
0.069871960000000,39,'133',}
0.069876500000000,39,'133',(
0.069881020000000,39,'133','12'
0.069885560000000,39,'0','0'
0.069890080000000,39,'0','0'
0.069894620000000,39,'0','0'
0.069899140000000,39,'0','0'
0.069903680000000,39,'0','0'
0.069908200000000,39,'0','0'
0.069912720000000,39,'5','7'
0.569860720000000,,'135',}
0.569864420000000,,'227','229'
0.569868940000000,,@,' '
0.569873480000000,,'0','0'
