Time [s],Packet ID,MOSI,MISO
-0.000016480000000,0,'135' (0x87),} (0x7D)
-0.000012780000000,0,'226' (0xE2),'228' (0xE4)
-0.000008240000000,0,'192' (0xC0),'224' (0xE0)
-0.000003700000000,0,'0' (0x00),'0' (0x00)
0.000021220000000,1,'129' (0x81),} (0x7D)
0.000024900000000,1,'12' (0x0C),'0' (0x00)
0.000057440000000,2,'184' (0xB8),} (0x7D)
0.000061120000000,2,'5' (0x05),'5' (0x05)
0.000065660000000,2,'0' (0x00),'0' (0x00)
0.000070180000000,2,'0' (0x00),'0' (0x00)
0.000074720000000,2,'0' (0x00),'0' (0x00)
0.000079240000000,2,'4' (0x04),'4' (0x04)
0.000090320000000,3,'128' (0x80),} (0x7D)
0.000094020000000,3,} (0x7D),} (0x7D)
0.000098540000000,3,( (0x28),} (0x7D)
0.000103080000000,3,'12' (0x0C),} (0x7D)
0.000107600000000,3,'2' (0x02),} (0x7D)
0.000730320000000,4,'135' (0x87),'179' (0xB3)
0.000734020000000,4,'229' (0xE5),'226' (0xE2)
0.000738540000000,4,' ' (0x20),'192' (0xC0)
0.000749020000000,5,'174' (0xAE),'179' (0xB3)
0.000752720000000,5,'136' (0x88),'144' (0x90)
0.000757240000000,5,} (0x7D),'133' (0x85)
0.000761780000000,5,( (0x28),'133' (0x85)
0.000766300000000,5,'12' (0x0C),'133' (0x85)
0.000770840000000,5,'0' (0x00),'0' (0x00)
0.000775360000000,5,'0' (0x00),'0' (0x00)
0.000779880000000,5,'0' (0x00),'0' (0x00)
0.000784420000000,5,'0' (0x00),'0' (0x00)
0.000788940000000,5,'0' (0x00),'0' (0x00)
0.000793480000000,5,'0' (0x00),'0' (0x00)
0.000798000000000,5,'7' (0x07),'5' (0x05)
0.000825400000000,6,'129' (0x81),'0' (0x00)
0.000829100000000,6,'144' (0x90),'12' (0x0C)
0.000839580000000,7,'137' (0x89),} (0x7D)
0.000843280000000,7,'0' (0x00),'0' (0x00)
0.000853760000000,8,'165' (0xA5),} (0x7D)
0.000857460000000,8,'134' (0x86),'6' (0x06)
0.009830780000000,9,'129' (0x81),} (0x7D)
0.009834460000000,9,'0' (0x00),'144' (0x90)
0.009838980000000,9,'0' (0x00),'0' (0x00)
0.009843520000000,9,'0' (0x00),'0' (0x00)
0.009848040000000,9,'210' (0xD2),'210' (0xD2)
0.009852560000000,9,'14' (0x0E),'14' (0x0E)
0.009857080000000,9,E (0x45),E (0x45)
0.009861600000000,9,'226' (0xE2),'229' (0xE5)
0.009866120000000,9,'192' (0xC0),' ' (0x20)
0.009870640000000,9,'0' (0x00),'0' (0x00)
0.009881120000000,10,'165' (0xA5),} (0x7D)
0.009884800000000,10,'6' (0x06),'134' (0x86)
0.009895280000000,11,'174' (0xAE),} (0x7D)
0.009898980000000,11,'144' (0x90),'136' (0x88)
0.009908280000000,12,'11' (0x0B),P (0x50)
0.009912820000000,12,\n (0x0A),'24' (0x18)
0.009917340000000,12,'0' (0x00),'0' (0x00)
0.009921880000000,12,'0' (0x00),'0' (0x00)
0.009926400000000,12,'0' (0x00),'0' (0x00)
0.009930940000000,12,'0' (0x00),'0' (0x00)
0.009935460000000,12,'0' (0x00),'0' (0x00)
0.009939980000000,12,'0' (0x00),'0' (0x00)
0.019846620000000,13,'135' (0x87),} (0x7D)
0.019850320000000,13,'226' (0xE2),'229' (0xE5)
0.019855320000000,14,'0' (0x00),'128' (0x80)
0.019884300000000,15,'129' (0x81),} (0x7D)
0.019888000000000,15,'12' (0x0C),'0' (0x00)
0.019920560000000,16,'184' (0xB8),} (0x7D)
0.019924260000000,16,'5' (0x05),'5' (0x05)
0.019928800000000,16,'0' (0x00),'0' (0x00)
0.019933320000000,16,'0' (0x00),'0' (0x00)
0.019937860000000,16,'0' (0x00),'0' (0x00)
0.019942400000000,16,'4' (0x04),'4' (0x04)
0.019953480000000,17,'128' (0x80),} (0x7D)
0.019957180000000,17,} (0x7D),} (0x7D)
0.019961720000000,17,( (0x28),} (0x7D)
0.019966260000000,17,'12' (0x0C),} (0x7D)
0.019970780000000,17,'2' (0x02),} (0x7D)
0.019975320000000,17,'179' (0xB3),} (0x7D)
0.020593660000000,18,'135' (0x87),'179' (0xB3)
0.020597340000000,18,'229' (0xE5),'226' (0xE2)
0.020601880000000,18,' ' (0x20),'192' (0xC0)
0.020612360000000,19,'174' (0xAE),'179' (0xB3)
0.020616060000000,19,'136' (0x88),'144' (0x90)
0.020620580000000,19,} (0x7D),'133' (0x85)
0.020625120000000,19,( (0x28),'133' (0x85)
0.020629640000000,19,'12' (0x0C),'133' (0x85)
0.020634160000000,19,'0' (0x00),'0' (0x00)
0.020638700000000,19,'0' (0x00),'0' (0x00)
0.020643220000000,19,'0' (0x00),'0' (0x00)
0.020647760000000,19,'0' (0x00),'0' (0x00)
0.020652280000000,19,'0' (0x00),'0' (0x00)
0.020656820000000,19,'0' (0x00),'0' (0x00)
0.020661340000000,19,'7' (0x07),'5' (0x05)
0.020688740000000,20,'129' (0x81),'0' (0x00)
0.020692440000000,20,'144' (0x90),'12' (0x0C)
0.020702920000000,21,'137' (0x89),} (0x7D)
0.020706620000000,21,'0' (0x00),'0' (0x00)
0.020717120000000,22,'165' (0xA5),} (0x7D)
0.020720820000000,22,'134' (0x86),'6' (0x06)
0.029820000000000,23,'129' (0x81),} (0x7D)
0.029823680000000,23,'0' (0x00),'144' (0x90)
0.029828220000000,23,'0' (0x00),'0' (0x00)
0.029832740000000,23,'0' (0x00),'0' (0x00)
0.029837260000000,23,'210' (0xD2),'210' (0xD2)
0.029841800000000,23,'14' (0x0E),'14' (0x0E)
0.029846320000000,23,E (0x45),E (0x45)
0.029850860000000,23,'226' (0xE2),'229' (0xE5)
0.029855380000000,23,'192' (0xC0),' ' (0x20)
0.029859920000000,23,'0' (0x00),'0' (0x00)
0.029870420000000,24,'165' (0xA5),} (0x7D)
0.029874120000000,24,'6' (0x06),'134' (0x86)
0.029884620000000,25,'174' (0xAE),} (0x7D)
0.029888320000000,25,'144' (0x90),'136' (0x88)
0.029892860000000,25,'133' (0x85),} (0x7D)
0.029898820000000,26,a (0x61),'3' (0x03)
0.029903360000000,27,@ (0x40),'0' (0x00)
0.029907900000000,27,'0' (0x00),'0' (0x00)
0.029912440000000,27,'0' (0x00),'0' (0x00)
0.029916980000000,27,'0' (0x00),'0' (0x00)
0.029921520000000,27,'0' (0x00),'0' (0x00)
0.029926040000000,27,'0' (0x00),'0' (0x00)
0.029930580000000,27,'1' (0x01),'1' (0x01)
0.049842480000000,28,'135' (0x87),} (0x7D)
0.049846160000000,28,'226' (0xE2),'229' (0xE5)
0.049850700000000,28,'192' (0xC0),' ' (0x20)
0.049855220000000,28,'0' (0x00),'0' (0x00)
0.049880100000000,29,'129' (0x81),} (0x7D)
0.049883800000000,29,'12' (0x0C),'0' (0x00)
0.049916320000000,30,'184' (0xB8),} (0x7D)
0.049920020000000,30,'5' (0x05),'5' (0x05)
0.049924560000000,30,'0' (0x00),'0' (0x00)
0.049929080000000,30,'0' (0x00),'0' (0x00)
0.049933620000000,30,'0' (0x00),'0' (0x00)
0.049938140000000,30,'4' (0x04),'4' (0x04)
0.049949220000000,31,'128' (0x80),} (0x7D)
0.049952900000000,31,} (0x7D),} (0x7D)
0.049957420000000,31,( (0x28),} (0x7D)
0.049961940000000,31,'12' (0x0C),} (0x7D)
0.049966460000000,31,'2' (0x02),} (0x7D)
0.050589500000000,32,'135' (0x87),'179' (0xB3)
0.050593200000000,32,'229' (0xE5),'226' (0xE2)
0.050597740000000,32,' ' (0x20),'192' (0xC0)
0.050608220000000,33,'174' (0xAE),'179' (0xB3)
0.050611920000000,33,'136' (0x88),'144' (0x90)
0.050616440000000,33,} (0x7D),'133' (0x85)
0.050620980000000,33,( (0x28),'133' (0x85)
0.050625500000000,33,'12' (0x0C),'133' (0x85)
0.050630040000000,33,'0' (0x00),'0' (0x00)
0.050634560000000,33,'0' (0x00),'0' (0x00)
0.050639100000000,33,'0' (0x00),'0' (0x00)
0.050643620000000,33,'0' (0x00),'0' (0x00)
0.050648160000000,33,'0' (0x00),'0' (0x00)
0.050652680000000,33,'0' (0x00),'0' (0x00)
0.050657220000000,33,'7' (0x07),'5' (0x05)
0.050683080000000,34,'129' (0x81),'0' (0x00)
0.050686780000000,34,'144' (0x90),'12' (0x0C)
0.050697280000000,35,'137' (0x89),} (0x7D)
0.050700980000000,35,'0' (0x00),'0' (0x00)
0.050711460000000,36,'165' (0xA5),} (0x7D)
0.050715160000000,36,'134' (0x86),'6' (0x06)
0.059815460000000,37,'129' (0x81),} (0x7D)
0.059819160000000,37,'0' (0x00),'144' (0x90)
0.059823700000000,37,'0' (0x00),'0' (0x00)
0.059828220000000,37,'0' (0x00),'0' (0x00)
0.059832740000000,37,'210' (0xD2),'210' (0xD2)
0.059837280000000,37,'14' (0x0E),'14' (0x0E)
0.059841800000000,37,E (0x45),E (0x45)
0.059846340000000,37,'226' (0xE2),'229' (0xE5)
0.059850860000000,37,'192' (0xC0),' ' (0x20)
0.059855400000000,37,'0' (0x00),'0' (0x00)
0.059865880000000,38,'165' (0xA5),} (0x7D)
0.059869580000000,38,'6' (0x06),'134' (0x86)
0.059880060000000,39,'174' (0xAE),} (0x7D)
0.059884000000000,40,! (0x21),'16' (0x10)
0.059893060000000,41,'11' (0x0B),P (0x50)
0.059898780000000,42,@ (0x40),'0' (0x00)
0.059903320000000,42,'0' (0x00),'0' (0x00)
0.059907840000000,42,'0' (0x00),'0' (0x00)
0.059912380000000,42,'0' (0x00),'0' (0x00)
0.059916900000000,42,'0' (0x00),'0' (0x00)
0.059921440000000,42,'0' (0x00),'0' (0x00)
0.059925960000000,42,'1' (0x01),'1' (0x01)
0.559837640000000,,'135' (0x87),} (0x7D)
0.559841320000000,,'227' (0xE3),'229' (0xE5)
0.559845860000000,,@ (0x40),' ' (0x20)
0.559850380000000,,'0' (0x00),'0' (0x00)
