Time [s],Packet ID,MOSI,MISO
-0.000016460000000,0,'135',}
-0.000012760000000,0,'227','229'
-0.000008240000000,0,'0',' '
-0.000003700000000,0,'0','0'
0.000021220000000,1,'129',}
0.000024920000000,1,'12','0'
0.000057500000000,2,'184',}
0.000061200000000,2,'5','5'
0.000065740000000,2,'0','0'
0.000070260000000,2,'0','0'
0.000074800000000,2,'0','0'
0.000079340000000,2,'4','4'
0.000090420000000,3,'128',}
0.000094120000000,3,},}
0.000098660000000,3,(,}
0.000103180000000,3,'12',}
0.000107720000000,3,'2',}
0.000112260000000,3,'179',}
0.000730660000000,4,'135','179'
0.000734360000000,4,'229','227'
0.000738880000000,4,'128','0'
0.000749380000000,5,'174','0'
0.000753060000000,5,'136','144'
0.000757600000000,5,},'133'
0.000762120000000,5,(,'133'
0.000766660000000,5,'12','133'
0.000771180000000,5,'0','0'
0.000775700000000,5,'0','0'
0.000780240000000,5,'0','0'
0.000784760000000,5,'0','0'
0.000789300000000,5,'0','0'
0.000793820000000,5,'0','0'
0.000798360000000,5,'7','5'
0.000811820000000,6,'129','0'
0.000815500000000,6,'144','12'
0.000826000000000,7,'137',}
0.000829680000000,7,'0','0'
0.000840180000000,8,'165',}
0.000843860000000,8,'134','6'
0.009786560000000,9,'129',}
0.009790260000000,9,'0','144'
0.009794780000000,9,'0','0'
0.009799300000000,9,'0','0'
0.009803840000000,9,'210','210'
0.009808360000000,9,'14','14'
0.009812900000000,9,E,E
0.009817420000000,9,'227','229'
0.009821940000000,9,'0','128'
0.009826460000000,9,'0','0'
0.009836960000000,10,'165',}
0.009840640000000,10,'6','134'
0.009851120000000,11,'174',}
0.009854820000000,11,'144','136'
0.009859340000000,11,'133',}
0.009863880000000,11,'133',(
0.009868400000000,11,'133','12'
0.009872920000000,11,'0','0'
0.009877460000000,11,'0','0'
0.009881980000000,11,'0','0'
0.009886520000000,11,'0','0'
0.009891040000000,11,'0','0'
0.009895560000000,11,'0','0'
0.009900100000000,11,'5','7'
0.009976500000000,12,'135',}
0.009980200000000,12,'227','229'
0.009984740000000,12,'0','128'
0.009989260000000,12,'0','0'
0.010014200000000,13,'129',}
0.010017900000000,13,'12','0'
0.010050480000000,14,'184',}
0.010054180000000,14,'5','5'
0.010058720000000,14,'0','0'
0.010063240000000,14,'0','0'
0.010067780000000,14,'0','0'
0.010072300000000,14,'4','4'
0.010083380000000,15,'128',}
0.010087080000000,15,},}
0.010091600000000,15,(,}
0.010096140000000,15,'12',}
0.010100660000000,15,'2',}
0.010723600000000,16,'135','0'
0.010727300000000,16,'229','227'
0.010731820000000,16,'128','0'
0.010742300000000,17,'174','0'
0.010746000000000,17,'136','144'
0.010750520000000,17,},'133'
0.010755040000000,17,(,'133'
0.010759580000000,17,'12','133'
0.010764100000000,17,'0','0'
0.010768620000000,17,'0','0'
0.010773160000000,17,'0','0'
0.010777680000000,17,'0','0'
0.010782220000000,17,'0','0'
0.010786740000000,17,'0','0'
0.010791280000000,17,'7','5'
0.010804740000000,18,'129','0'
0.010808440000000,18,'144','12'
0.010818920000000,19,'137',}
0.010822620000000,19,'0','0'
0.010833100000000,20,'165',}
0.010836780000000,20,'134','6'
0.019804600000000,21,'129',}
0.019808300000000,21,'0','144'
0.019812840000000,21,'0','0'
0.019817360000000,21,'0','0'
0.019821900000000,21,'210','210'
0.019826440000000,21,'14','14'
0.019830960000000,21,E,E
0.019835500000000,21,'227','229'
0.019840040000000,21,'0','128'
0.019844560000000,21,'0','0'
0.019855060000000,22,'165',}
0.019858760000000,22,'6','134'
0.019869260000000,23,'174',}
0.019877740000000,24,'11','250'
0.019882280000000,24,'11',P
0.019886820000000,24,\n,'24'
0.019891340000000,24,'0','0'
0.019895880000000,24,'0','0'
0.019900420000000,24,'0','0'
0.019904960000000,24,'0','0'
0.019909480000000,24,'0','0'
0.019914020000000,24,'0','0'
0.019994860000000,25,'135',}
0.019998560000000,25,'227','229'
0.020003080000000,25,'0','128'
0.020007620000000,25,'0','0'
0.020032520000000,26,'129',}
0.020036200000000,26,'12','0'
0.020068720000000,27,'184',}
0.020072420000000,27,'5','5'
0.020076960000000,27,'0','0'
0.020081480000000,27,'0','0'
0.020086020000000,27,'0','0'
0.020090560000000,27,'4','4'
0.020101660000000,28,'128',}
0.020105360000000,28,},}
0.020109880000000,28,(,}
0.020114420000000,28,'12',}
0.020118960000000,28,'2',}
0.020123500000000,28,'179',}
0.020742220000000,29,'135','0'
0.020745920000000,29,'229','227'
0.020750440000000,29,'128','0'
0.020760920000000,30,'174','0'
0.020764620000000,30,'136','144'
0.020769140000000,30,},'133'
0.020773660000000,30,(,'133'
0.020778200000000,30,'12','133'
0.020782720000000,30,'0','0'
0.020787260000000,30,'0','0'
0.020791780000000,30,'0','0'
0.020796300000000,30,'0','0'
0.020800840000000,30,'0','0'
0.020805360000000,30,'0','0'
0.020809880000000,30,'7','5'
0.020823380000000,31,'129','0'
0.020827080000000,31,'144','12'
0.020837580000000,32,'137',}
0.020841280000000,32,'0','0'
0.020851760000000,33,'165',}
0.020855460000000,33,'134','6'
0.029798700000000,34,'129',}
0.029802400000000,34,'0','144'
0.029806940000000,34,'0','0'
0.029811460000000,34,'0','0'
0.029816000000000,34,'210','210'
0.029820540000000,34,'14','14'
0.029825060000000,34,E,E
0.029829600000000,34,'227','229'
0.029834140000000,34,'0','128'
0.029838680000000,34,'0','0'
0.029849160000000,35,'165',}
0.029852860000000,35,'6','134'
0.029863360000000,36,'174',}
0.029867300000000,37,!,'16'
0.029876360000000,38,'11',P
0.029882080000000,39,@,'0'
0.029886620000000,39,'0','0'
0.029891140000000,39,'0','0'
0.029895680000000,39,'0','0'
0.029900220000000,39,'0','0'
0.029904740000000,39,'0','0'
0.029909280000000,39,'1','1'
0.529830620000000,,'135',}
0.529834320000000,,'227','229'
0.529838860000000,,@,'128'
0.529843380000000,,'0','0'
