Time [s], Analyzer Name, Decoded Protocol Result
-0.000016440000000,SPI,MOSI: '135';  MISO: }
-0.000012760000000,SPI,MOSI: '226';  MISO: '229'
-0.000008220000000,SPI,MOSI: `;  MISO: '128'
-0.000003700000000,SPI,MOSI: '0';  MISO: '0'
0.000021220000000,SPI,MOSI: '129';  MISO: }
0.000024920000000,SPI,MOSI: '12';  MISO: '0'
0.000057480000000,SPI,MOSI: '184';  MISO: }
0.000061180000000,SPI,MOSI: '5';  MISO: '5'
0.000065700000000,SPI,MOSI: '0';  MISO: '0'
0.000070240000000,SPI,MOSI: '0';  MISO: '0'
0.000074780000000,SPI,MOSI: '0';  MISO: '0'
0.000079300000000,SPI,MOSI: '4';  MISO: '4'
0.000090400000000,SPI,MOSI: '128';  MISO: }
0.000094100000000,SPI,MOSI: };  MISO: }
0.000098640000000,SPI,MOSI: (;  MISO: }
0.000103160000000,SPI,MOSI: '12';  MISO: }
0.000107700000000,SPI,MOSI: '2';  MISO: }
0.000112240000000,SPI,MOSI: '179';  MISO: }
0.000730900000000,SPI,MOSI: '135';  MISO: '179'
0.000734600000000,SPI,MOSI: '229';  MISO: '226'
0.000739140000000,SPI,MOSI: '192';  MISO: `
0.000749620000000,SPI,MOSI: '174';  MISO: '179'
0.000753320000000,SPI,MOSI: '136';  MISO: '144'
0.000757840000000,SPI,MOSI: };  MISO: '133'
0.000762380000000,SPI,MOSI: (;  MISO: '133'
0.000766900000000,SPI,MOSI: '12';  MISO: '133'
0.000771440000000,SPI,MOSI: '0';  MISO: '0'
0.000775960000000,SPI,MOSI: '0';  MISO: '0'
0.000780500000000,SPI,MOSI: '0';  MISO: '0'
0.000785020000000,SPI,MOSI: '0';  MISO: '0'
0.000789560000000,SPI,MOSI: '0';  MISO: '0'
0.000794080000000,SPI,MOSI: '0';  MISO: '0'
0.000798600000000,SPI,MOSI: '7';  MISO: '5'
0.000824480000000,SPI,MOSI: '129';  MISO: '0'
0.000828160000000,SPI,MOSI: '144';  MISO: '12'
0.000838640000000,SPI,MOSI: '137';  MISO: }
0.000842340000000,SPI,MOSI: '0';  MISO: '0'
0.000852820000000,SPI,MOSI: '165';  MISO: }
0.000856520000000,SPI,MOSI: '134';  MISO: '6'
0.009772840000000,SPI,MOSI: '129';  MISO: }
0.009776540000000,SPI,MOSI: '0';  MISO: '144'
0.009781080000000,SPI,MOSI: '0';  MISO: '0'
0.009785600000000,SPI,MOSI: '0';  MISO: '0'
0.009790120000000,SPI,MOSI: '210';  MISO: '210'
0.009794660000000,SPI,MOSI: '14';  MISO: '14'
0.009799180000000,SPI,MOSI: E;  MISO: E
0.009803720000000,SPI,MOSI: '226';  MISO: '229'
0.009808260000000,SPI,MOSI: `;  MISO: '192'
0.009812780000000,SPI,MOSI: '0';  MISO: '0'
0.009823280000000,SPI,MOSI: '165';  MISO: }
0.009826980000000,SPI,MOSI: '6';  MISO: '134'
0.009837480000000,SPI,MOSI: '174';  MISO: }
0.009842120000000,SPI,MOSI: '8';  MISO: '135'
0.009847120000000,SPI,MOSI: a;  MISO: J
0.009854980000000,SPI,MOSI: \n;  MISO: '24'
0.009859500000000,SPI,MOSI: '0';  MISO: '0'
0.009864040000000,SPI,MOSI: '0';  MISO: '0'
0.009868560000000,SPI,MOSI: '0';  MISO: '0'
0.009873080000000,SPI,MOSI: '0';  MISO: '0'
0.009877620000000,SPI,MOSI: '0';  MISO: '0'
0.009882140000000,SPI,MOSI: '0';  MISO: '0'
0.039813420000000,SPI,MOSI: '135';  MISO: }
0.039817120000000,SPI,MOSI: '226';  MISO: '229'
0.039821640000000,SPI,MOSI: `;  MISO: '192'
0.039826180000000,SPI,MOSI: '0';  MISO: '0'
0.039851100000000,SPI,MOSI: '129';  MISO: }
0.039854800000000,SPI,MOSI: '12';  MISO: '0'
0.039887360000000,SPI,MOSI: '184';  MISO: }
0.039891060000000,SPI,MOSI: '5';  MISO: '5'
0.039895600000000,SPI,MOSI: '0';  MISO: '0'
0.039900120000000,SPI,MOSI: '0';  MISO: '0'
0.039904660000000,SPI,MOSI: '0';  MISO: '0'
0.039909180000000,SPI,MOSI: '4';  MISO: '4'
0.039920280000000,SPI,MOSI: '128';  MISO: }
0.039923980000000,SPI,MOSI: };  MISO: }
0.039928500000000,SPI,MOSI: (;  MISO: }
0.039933040000000,SPI,MOSI: '12';  MISO: }
0.039937560000000,SPI,MOSI: '2';  MISO: }
0.039942100000000,SPI,MOSI: '179';  MISO: }
0.040560340000000,SPI,MOSI: '135';  MISO: '179'
0.040564020000000,SPI,MOSI: '229';  MISO: '226'
0.040568560000000,SPI,MOSI: '192';  MISO: `
0.040579040000000,SPI,MOSI: '174';  MISO: '179'
0.040582740000000,SPI,MOSI: '136';  MISO: '144'
0.040587260000000,SPI,MOSI: };  MISO: '133'
0.040591780000000,SPI,MOSI: (;  MISO: '133'
0.040596300000000,SPI,MOSI: '12';  MISO: '133'
0.040600840000000,SPI,MOSI: '0';  MISO: '0'
0.040605360000000,SPI,MOSI: '0';  MISO: '0'
0.040609880000000,SPI,MOSI: '0';  MISO: '0'
0.040614400000000,SPI,MOSI: '0';  MISO: '0'
0.040618940000000,SPI,MOSI: '0';  MISO: '0'
0.040623460000000,SPI,MOSI: '0';  MISO: '0'
0.040627980000000,SPI,MOSI: '7';  MISO: '5'
0.040653840000000,SPI,MOSI: '129';  MISO: '0'
0.040657540000000,SPI,MOSI: '144';  MISO: '12'
0.040668020000000,SPI,MOSI: '137';  MISO: }
0.040671720000000,SPI,MOSI: '0';  MISO: '0'
0.040682200000000,SPI,MOSI: '165';  MISO: }
0.040685920000000,SPI,MOSI: '134';  MISO: '6'
0.049790660000000,SPI,MOSI: '129';  MISO: }
0.049794360000000,SPI,MOSI: '0';  MISO: '144'
0.049798900000000,SPI,MOSI: '0';  MISO: '0'
0.049803440000000,SPI,MOSI: '0';  MISO: '0'
0.049807960000000,SPI,MOSI: '210';  MISO: '210'
0.049812500000000,SPI,MOSI: '14';  MISO: '14'
0.049817020000000,SPI,MOSI: E;  MISO: E
0.049821560000000,SPI,MOSI: '226';  MISO: '229'
0.049826080000000,SPI,MOSI: `;  MISO: '192'
0.049830620000000,SPI,MOSI: '0';  MISO: '0'
0.049841100000000,SPI,MOSI: '165';  MISO: }
0.049844780000000,SPI,MOSI: '6';  MISO: '134'
0.049855260000000,SPI,MOSI: '174';  MISO: }
0.049859200000000,SPI,MOSI: !;  MISO: '16'
0.049863720000000,SPI,MOSI: '11';  MISO: '250'
0.049869440000000,SPI,MOSI: a;  MISO: '3'
0.049873960000000,SPI,MOSI: @;  MISO: '0'
0.049878500000000,SPI,MOSI: '0';  MISO: '0'
0.049883020000000,SPI,MOSI: '0';  MISO: '0'
0.049887560000000,SPI,MOSI: '0';  MISO: '0'
0.049892080000000,SPI,MOSI: '0';  MISO: '0'
0.049896620000000,SPI,MOSI: '0';  MISO: '0'
0.049901160000000,SPI,MOSI: '1';  MISO: '1'
0.089819240000000,SPI,MOSI: '135';  MISO: }
0.089822920000000,SPI,MOSI: '226';  MISO: '229'
0.089827460000000,SPI,MOSI: `;  MISO: '192'
0.089831980000000,SPI,MOSI: '0';  MISO: '0'
0.089856860000000,SPI,MOSI: '129';  MISO: }
0.089860560000000,SPI,MOSI: '12';  MISO: '0'
0.089893120000000,SPI,MOSI: '184';  MISO: }
0.089896820000000,SPI,MOSI: '5';  MISO: '5'
0.089901340000000,SPI,MOSI: '0';  MISO: '0'
0.089905880000000,SPI,MOSI: '0';  MISO: '0'
0.089910400000000,SPI,MOSI: '0';  MISO: '0'
0.089914940000000,SPI,MOSI: '4';  MISO: '4'
0.089926020000000,SPI,MOSI: '128';  MISO: }
0.089929720000000,SPI,MOSI: };  MISO: }
0.089934260000000,SPI,MOSI: (;  MISO: }
0.089938800000000,SPI,MOSI: '12';  MISO: }
0.089943320000000,SPI,MOSI: '2';  MISO: }
0.089947860000000,SPI,MOSI: '179';  MISO: }
0.090566360000000,SPI,MOSI: '135';  MISO: '179'
0.090570060000000,SPI,MOSI: '229';  MISO: '226'
0.090574580000000,SPI,MOSI: '192';  MISO: `
0.090585080000000,SPI,MOSI: '174';  MISO: '179'
0.090588780000000,SPI,MOSI: '136';  MISO: '144'
0.090593300000000,SPI,MOSI: };  MISO: '133'
0.090597840000000,SPI,MOSI: (;  MISO: '133'
0.090602380000000,SPI,MOSI: '12';  MISO: '133'
0.090606900000000,SPI,MOSI: '0';  MISO: '0'
0.090611440000000,SPI,MOSI: '0';  MISO: '0'
0.090615960000000,SPI,MOSI: '0';  MISO: '0'
0.090620500000000,SPI,MOSI: '0';  MISO: '0'
0.090625040000000,SPI,MOSI: '0';  MISO: '0'
0.090629560000000,SPI,MOSI: '0';  MISO: '0'
0.090634100000000,SPI,MOSI: '7';  MISO: '5'
0.090659960000000,SPI,MOSI: '129';  MISO: '0'
0.090663660000000,SPI,MOSI: '144';  MISO: '12'
0.090674140000000,SPI,MOSI: '137';  MISO: }
0.090677840000000,SPI,MOSI: '0';  MISO: '0'
0.090688300000000,SPI,MOSI: '165';  MISO: }
0.090691980000000,SPI,MOSI: '134';  MISO: '6'
0.099792140000000,SPI,MOSI: '129';  MISO: }
0.099795840000000,SPI,MOSI: '0';  MISO: '144'
0.099800380000000,SPI,MOSI: '0';  MISO: '0'
0.099804920000000,SPI,MOSI: '0';  MISO: '0'
0.099809460000000,SPI,MOSI: '210';  MISO: '210'
0.099813980000000,SPI,MOSI: '14';  MISO: '14'
0.099818500000000,SPI,MOSI: E;  MISO: E
0.099823040000000,SPI,MOSI: '226';  MISO: '229'
0.099827560000000,SPI,MOSI: `;  MISO: '192'
0.099832100000000,SPI,MOSI: '0';  MISO: '0'
0.099842580000000,SPI,MOSI: '165';  MISO: }
0.099846260000000,SPI,MOSI: '6';  MISO: '134'
0.099856760000000,SPI,MOSI: '174';  MISO: }
0.099861400000000,SPI,MOSI: '8';  MISO: '135'
0.099869740000000,SPI,MOSI: '11';  MISO: P
0.099874260000000,SPI,MOSI: \n;  MISO: '24'
0.099878800000000,SPI,MOSI: '0';  MISO: '0'
0.099883320000000,SPI,MOSI: '0';  MISO: '0'
0.099887860000000,SPI,MOSI: '0';  MISO: '0'
0.099892380000000,SPI,MOSI: '0';  MISO: '0'
0.099896900000000,SPI,MOSI: '0';  MISO: '0'
0.099901440000000,SPI,MOSI: '0';  MISO: '0'
0.599843500000000,SPI,MOSI: '135';  MISO: }
0.599847200000000,SPI,MOSI: '227';  MISO: '229'
0.599851740000000,SPI,MOSI: @;  MISO: '192'
0.599856260000000,SPI,MOSI: '0';  MISO: '0'
