Time [s],Packet ID,MOSI,MISO
-0.000016440000000,0,'135' (0x87),} (0x7D)
-0.000012760000000,0,'226' (0xE2),'229' (0xE5)
-0.000008220000000,0,` (0x60),'128' (0x80)
-0.000003700000000,0,'0' (0x00),'0' (0x00)
0.000021220000000,1,'129' (0x81),} (0x7D)
0.000024920000000,1,'12' (0x0C),'0' (0x00)
0.000057480000000,2,'184' (0xB8),} (0x7D)
0.000061180000000,2,'5' (0x05),'5' (0x05)
0.000065700000000,2,'0' (0x00),'0' (0x00)
0.000070240000000,2,'0' (0x00),'0' (0x00)
0.000074780000000,2,'0' (0x00),'0' (0x00)
0.000079300000000,2,'4' (0x04),'4' (0x04)
0.000090400000000,3,'128' (0x80),} (0x7D)
0.000094100000000,3,} (0x7D),} (0x7D)
0.000098640000000,3,( (0x28),} (0x7D)
0.000103160000000,3,'12' (0x0C),} (0x7D)
0.000107700000000,3,'2' (0x02),} (0x7D)
0.000112240000000,3,'179' (0xB3),} (0x7D)
0.000730900000000,4,'135' (0x87),'179' (0xB3)
0.000734600000000,4,'229' (0xE5),'226' (0xE2)
0.000739140000000,4,'192' (0xC0),` (0x60)
0.000749620000000,5,'174' (0xAE),'179' (0xB3)
0.000753320000000,5,'136' (0x88),'144' (0x90)
0.000757840000000,5,} (0x7D),'133' (0x85)
0.000762380000000,5,( (0x28),'133' (0x85)
0.000766900000000,5,'12' (0x0C),'133' (0x85)
0.000771440000000,5,'0' (0x00),'0' (0x00)
0.000775960000000,5,'0' (0x00),'0' (0x00)
0.000780500000000,5,'0' (0x00),'0' (0x00)
0.000785020000000,5,'0' (0x00),'0' (0x00)
0.000789560000000,5,'0' (0x00),'0' (0x00)
0.000794080000000,5,'0' (0x00),'0' (0x00)
0.000798600000000,5,'7' (0x07),'5' (0x05)
0.000824480000000,6,'129' (0x81),'0' (0x00)
0.000828160000000,6,'144' (0x90),'12' (0x0C)
0.000838640000000,7,'137' (0x89),} (0x7D)
0.000842340000000,7,'0' (0x00),'0' (0x00)
0.000852820000000,8,'165' (0xA5),} (0x7D)
0.000856520000000,8,'134' (0x86),'6' (0x06)
0.009772840000000,9,'129' (0x81),} (0x7D)
0.009776540000000,9,'0' (0x00),'144' (0x90)
0.009781080000000,9,'0' (0x00),'0' (0x00)
0.009785600000000,9,'0' (0x00),'0' (0x00)
0.009790120000000,9,'210' (0xD2),'210' (0xD2)
0.009794660000000,9,'14' (0x0E),'14' (0x0E)
0.009799180000000,9,E (0x45),E (0x45)
0.009803720000000,9,'226' (0xE2),'229' (0xE5)
0.009808260000000,9,` (0x60),'192' (0xC0)
0.009812780000000,9,'0' (0x00),'0' (0x00)
0.009823280000000,10,'165' (0xA5),} (0x7D)
0.009826980000000,10,'6' (0x06),'134' (0x86)
0.009837480000000,11,'174' (0xAE),} (0x7D)
0.009842120000000,12,'8' (0x08),'135' (0x87)
0.009847120000000,13,a (0x61),J (0x4A)
0.009854980000000,14,\n (0x0A),'24' (0x18)
0.009859500000000,14,'0' (0x00),'0' (0x00)
0.009864040000000,14,'0' (0x00),'0' (0x00)
0.009868560000000,14,'0' (0x00),'0' (0x00)
0.009873080000000,14,'0' (0x00),'0' (0x00)
0.009877620000000,14,'0' (0x00),'0' (0x00)
0.009882140000000,14,'0' (0x00),'0' (0x00)
0.039813420000000,15,'135' (0x87),} (0x7D)
0.039817120000000,15,'226' (0xE2),'229' (0xE5)
0.039821640000000,15,` (0x60),'192' (0xC0)
0.039826180000000,15,'0' (0x00),'0' (0x00)
0.039851100000000,16,'129' (0x81),} (0x7D)
0.039854800000000,16,'12' (0x0C),'0' (0x00)
0.039887360000000,17,'184' (0xB8),} (0x7D)
0.039891060000000,17,'5' (0x05),'5' (0x05)
0.039895600000000,17,'0' (0x00),'0' (0x00)
0.039900120000000,17,'0' (0x00),'0' (0x00)
0.039904660000000,17,'0' (0x00),'0' (0x00)
0.039909180000000,17,'4' (0x04),'4' (0x04)
0.039920280000000,18,'128' (0x80),} (0x7D)
0.039923980000000,18,} (0x7D),} (0x7D)
0.039928500000000,18,( (0x28),} (0x7D)
0.039933040000000,18,'12' (0x0C),} (0x7D)
0.039937560000000,18,'2' (0x02),} (0x7D)
0.039942100000000,18,'179' (0xB3),} (0x7D)
0.040560340000000,19,'135' (0x87),'179' (0xB3)
0.040564020000000,19,'229' (0xE5),'226' (0xE2)
0.040568560000000,19,'192' (0xC0),` (0x60)
0.040579040000000,20,'174' (0xAE),'179' (0xB3)
0.040582740000000,20,'136' (0x88),'144' (0x90)
0.040587260000000,20,} (0x7D),'133' (0x85)
0.040591780000000,20,( (0x28),'133' (0x85)
0.040596300000000,20,'12' (0x0C),'133' (0x85)
0.040600840000000,20,'0' (0x00),'0' (0x00)
0.040605360000000,20,'0' (0x00),'0' (0x00)
0.040609880000000,20,'0' (0x00),'0' (0x00)
0.040614400000000,20,'0' (0x00),'0' (0x00)
0.040618940000000,20,'0' (0x00),'0' (0x00)
0.040623460000000,20,'0' (0x00),'0' (0x00)
0.040627980000000,20,'7' (0x07),'5' (0x05)
0.040653840000000,21,'129' (0x81),'0' (0x00)
0.040657540000000,21,'144' (0x90),'12' (0x0C)
0.040668020000000,22,'137' (0x89),} (0x7D)
0.040671720000000,22,'0' (0x00),'0' (0x00)
0.040682200000000,23,'165' (0xA5),} (0x7D)
0.040685920000000,23,'134' (0x86),'6' (0x06)
0.049790660000000,24,'129' (0x81),} (0x7D)
0.049794360000000,24,'0' (0x00),'144' (0x90)
0.049798900000000,24,'0' (0x00),'0' (0x00)
0.049803440000000,24,'0' (0x00),'0' (0x00)
0.049807960000000,24,'210' (0xD2),'210' (0xD2)
0.049812500000000,24,'14' (0x0E),'14' (0x0E)
0.049817020000000,24,E (0x45),E (0x45)
0.049821560000000,24,'226' (0xE2),'229' (0xE5)
0.049826080000000,24,` (0x60),'192' (0xC0)
0.049830620000000,24,'0' (0x00),'0' (0x00)
0.049841100000000,25,'165' (0xA5),} (0x7D)
0.049844780000000,25,'6' (0x06),'134' (0x86)
0.049855260000000,26,'174' (0xAE),} (0x7D)
0.049859200000000,27,! (0x21),'16' (0x10)
0.049863720000000,27,'11' (0x0B),'250' (0xFA)
0.049869440000000,28,a (0x61),'3' (0x03)
0.049873960000000,28,@ (0x40),'0' (0x00)
0.049878500000000,28,'0' (0x00),'0' (0x00)
0.049883020000000,28,'0' (0x00),'0' (0x00)
0.049887560000000,28,'0' (0x00),'0' (0x00)
0.049892080000000,28,'0' (0x00),'0' (0x00)
0.049896620000000,28,'0' (0x00),'0' (0x00)
0.049901160000000,28,'1' (0x01),'1' (0x01)
0.089819240000000,29,'135' (0x87),} (0x7D)
0.089822920000000,29,'226' (0xE2),'229' (0xE5)
0.089827460000000,29,` (0x60),'192' (0xC0)
0.089831980000000,29,'0' (0x00),'0' (0x00)
0.089856860000000,30,'129' (0x81),} (0x7D)
0.089860560000000,30,'12' (0x0C),'0' (0x00)
0.089893120000000,31,'184' (0xB8),} (0x7D)
0.089896820000000,31,'5' (0x05),'5' (0x05)
0.089901340000000,31,'0' (0x00),'0' (0x00)
0.089905880000000,31,'0' (0x00),'0' (0x00)
0.089910400000000,31,'0' (0x00),'0' (0x00)
0.089914940000000,31,'4' (0x04),'4' (0x04)
0.089926020000000,32,'128' (0x80),} (0x7D)
0.089929720000000,32,} (0x7D),} (0x7D)
0.089934260000000,32,( (0x28),} (0x7D)
0.089938800000000,32,'12' (0x0C),} (0x7D)
0.089943320000000,32,'2' (0x02),} (0x7D)
0.089947860000000,32,'179' (0xB3),} (0x7D)
0.090566360000000,33,'135' (0x87),'179' (0xB3)
0.090570060000000,33,'229' (0xE5),'226' (0xE2)
0.090574580000000,33,'192' (0xC0),` (0x60)
0.090585080000000,34,'174' (0xAE),'179' (0xB3)
0.090588780000000,34,'136' (0x88),'144' (0x90)
0.090593300000000,34,} (0x7D),'133' (0x85)
0.090597840000000,34,( (0x28),'133' (0x85)
0.090602380000000,34,'12' (0x0C),'133' (0x85)
0.090606900000000,34,'0' (0x00),'0' (0x00)
0.090611440000000,34,'0' (0x00),'0' (0x00)
0.090615960000000,34,'0' (0x00),'0' (0x00)
0.090620500000000,34,'0' (0x00),'0' (0x00)
0.090625040000000,34,'0' (0x00),'0' (0x00)
0.090629560000000,34,'0' (0x00),'0' (0x00)
0.090634100000000,34,'7' (0x07),'5' (0x05)
0.090659960000000,35,'129' (0x81),'0' (0x00)
0.090663660000000,35,'144' (0x90),'12' (0x0C)
0.090674140000000,36,'137' (0x89),} (0x7D)
0.090677840000000,36,'0' (0x00),'0' (0x00)
0.090688300000000,37,'165' (0xA5),} (0x7D)
0.090691980000000,37,'134' (0x86),'6' (0x06)
0.099792140000000,38,'129' (0x81),} (0x7D)
0.099795840000000,38,'0' (0x00),'144' (0x90)
0.099800380000000,38,'0' (0x00),'0' (0x00)
0.099804920000000,38,'0' (0x00),'0' (0x00)
0.099809460000000,38,'210' (0xD2),'210' (0xD2)
0.099813980000000,38,'14' (0x0E),'14' (0x0E)
0.099818500000000,38,E (0x45),E (0x45)
0.099823040000000,38,'226' (0xE2),'229' (0xE5)
0.099827560000000,38,` (0x60),'192' (0xC0)
0.099832100000000,38,'0' (0x00),'0' (0x00)
0.099842580000000,39,'165' (0xA5),} (0x7D)
0.099846260000000,39,'6' (0x06),'134' (0x86)
0.099856760000000,40,'174' (0xAE),} (0x7D)
0.099861400000000,41,'8' (0x08),'135' (0x87)
0.099869740000000,42,'11' (0x0B),P (0x50)
0.099874260000000,42,\n (0x0A),'24' (0x18)
0.099878800000000,42,'0' (0x00),'0' (0x00)
0.099883320000000,42,'0' (0x00),'0' (0x00)
0.099887860000000,42,'0' (0x00),'0' (0x00)
0.099892380000000,42,'0' (0x00),'0' (0x00)
0.099896900000000,42,'0' (0x00),'0' (0x00)
0.099901440000000,42,'0' (0x00),'0' (0x00)
0.599843500000000,,'135' (0x87),} (0x7D)
0.599847200000000,,'227' (0xE3),'229' (0xE5)
0.599851740000000,,@ (0x40),'192' (0xC0)
0.599856260000000,,'0' (0x00),'0' (0x00)
