Time [s],Packet ID,MOSI,MISO
-0.000016440000000,0,'135',}
-0.000012760000000,0,'227','229'
-0.000008220000000,0,@,'192'
-0.000003700000000,0,'0','0'
0.000021220000000,1,'129',}
0.000024900000000,1,'12','0'
0.000057440000000,2,'184',}
0.000061140000000,2,'5','5'
0.000065660000000,2,'0','0'
0.000070200000000,2,'0','0'
0.000074720000000,2,'0','0'
0.000079240000000,2,'4','4'
0.000090340000000,3,'128',}
0.000094020000000,3,},}
0.000098540000000,3,(,}
0.000103080000000,3,'12',}
0.000107600000000,3,'2',}
0.000730820000000,4,'135','179'
0.000734500000000,4,'230','227'
0.000739040000000,4,' ',@
0.000749520000000,5,'174','0'
0.000753220000000,5,'136','144'
0.000757740000000,5,},'133'
0.000762280000000,5,(,'133'
0.000766800000000,5,'12','133'
0.000771320000000,5,'0','0'
0.000775860000000,5,'0','0'
0.000780380000000,5,'0','0'
0.000784900000000,5,'0','0'
0.000789440000000,5,'0','0'
0.000793960000000,5,'0','0'
0.000798500000000,5,'7','5'
0.000811960000000,6,'129','0'
0.000815660000000,6,'144','12'
0.000826140000000,7,'137',}
0.000829840000000,7,'0','0'
0.000840320000000,8,'165',}
0.000844020000000,8,'134','6'
0.009786780000000,9,'129',}
0.009790460000000,9,'0','144'
0.009795000000000,9,'0','0'
0.009799520000000,9,'0','0'
0.009804060000000,9,'210','210'
0.009808580000000,9,'14','14'
0.009813100000000,9,E,E
0.009817640000000,9,'227','230'
0.009822160000000,9,@,' '
0.009826700000000,9,'0','0'
0.009837180000000,10,'165',}
0.009840880000000,10,'6','134'
0.009851360000000,11,'174',}
0.009855060000000,11,'144','136'
0.009861020000000,12,a,J
0.009865560000000,12,a,'3'
0.009870080000000,12,@,'0'
0.009874600000000,12,'0','0'
0.009879140000000,12,'0','0'
0.009883680000000,12,'0','0'
0.009888200000000,12,'0','0'
0.009892740000000,12,'0','0'
0.009897260000000,12,'1','1'
0.009976780000000,13,'135',}
0.009980460000000,13,'227','230'
0.009985000000000,13,@,' '
0.009989520000000,13,'0','0'
0.010014440000000,14,'129',}
0.010018140000000,14,'12','0'
0.010050660000000,15,'184',}
0.010054360000000,15,'5','5'
0.010058880000000,15,'0','0'
0.010063420000000,15,'0','0'
0.010067940000000,15,'0','0'
0.010072480000000,15,'4','4'
0.010083560000000,16,'128',}
0.010087260000000,16,},}
0.010091780000000,16,(,}
0.010096320000000,16,'12',}
0.010100840000000,16,'2',}
0.010723920000000,17,'135','0'
0.010727600000000,17,'230','227'
0.010732140000000,17,' ',@
0.010742620000000,18,'174','0'
0.010746320000000,18,'136','144'
0.010750860000000,18,},'133'
0.010755380000000,18,(,'133'
0.010759920000000,18,'12','133'
0.010764440000000,18,'0','0'
0.010768980000000,18,'0','0'
0.010773500000000,18,'0','0'
0.010778040000000,18,'0','0'
0.010782560000000,18,'0','0'
0.010787100000000,18,'0','0'
0.010791620000000,18,'7','5'
0.010805100000000,19,'129','0'
0.010808800000000,19,'144','12'
0.010819300000000,20,'137',}
0.010822980000000,20,'0','0'
0.010833480000000,21,'165',}
0.010837180000000,21,'134','6'
0.019784440000000,22,'129',}
0.019788120000000,22,'0','144'
0.019792660000000,22,'0','0'
0.019797180000000,22,'0','0'
0.019801700000000,22,'210','210'
0.019806220000000,22,'14','14'
0.019810740000000,22,E,E
0.019815280000000,22,'227','230'
0.019819800000000,22,@,' '
0.019824320000000,22,'0','0'
0.019834800000000,23,'165',}
0.019838480000000,23,'6','134'
0.019848960000000,24,'174',}
0.019852660000000,24,'144','136'
0.019857180000000,24,'133',}
0.019861720000000,24,'133',(
0.019866240000000,24,'133','12'
0.019870780000000,24,'0','0'
0.019875300000000,24,'0','0'
0.019879840000000,24,'0','0'
0.019884360000000,24,'0','0'
0.019888900000000,24,'0','0'
0.019893420000000,24,'0','0'
0.019897960000000,24,'5','7'
0.059837300000000,25,'135',}
0.059841000000000,25,'227','230'
0.059845520000000,25,@,' '
0.059850060000000,25,'0','0'
0.059874940000000,26,'129',}
0.059878640000000,26,'12','0'
0.059911140000000,27,'184',}
0.059914820000000,27,'5','5'
0.059919340000000,27,'0','0'
0.059923880000000,27,'0','0'
0.059928400000000,27,'0','0'
0.059932920000000,27,'4','4'
0.059944000000000,28,'128',}
0.059947680000000,28,},}
0.059952220000000,28,(,}
0.059956740000000,28,'12',}
0.059961260000000,28,'2',}
0.059965780000000,28,'179',}
0.060584220000000,29,'135','179'
0.060587920000000,29,'230','227'
0.060592440000000,29,' ',@
0.060602920000000,30,'174','0'
0.060606620000000,30,'136','144'
0.060611140000000,30,},'133'
0.060615660000000,30,(,'133'
0.060620200000000,30,'12','133'
0.060624720000000,30,'0','0'
0.060629260000000,30,'0','0'
0.060633800000000,30,'0','0'
0.060638320000000,30,'0','0'
0.060642860000000,30,'0','0'
0.060647400000000,30,'0','0'
0.060651920000000,30,'7','5'
0.060665400000000,31,'129','0'
0.060669100000000,31,'144','12'
0.060679600000000,32,'137',}
0.060683300000000,32,'0','0'
0.060693800000000,33,'165',}
0.060697500000000,33,'134','6'
0.069798340000000,34,'129',}
0.069802040000000,34,'0','144'
0.069806560000000,34,'0','0'
0.069811080000000,34,'0','0'
0.069815620000000,34,'210','210'
0.069820140000000,34,'14','14'
0.069824660000000,34,E,E
0.069829200000000,34,'227','230'
0.069833720000000,34,@,' '
0.069838260000000,34,'0','0'
0.069848740000000,35,'165',}
0.069852440000000,35,'6','134'
0.069862920000000,36,'174',}
0.069866620000000,36,'144','136'
0.069871140000000,36,'133',}
0.069875660000000,36,'133',(
0.069880200000000,36,'133','12'
0.069884720000000,36,'0','0'
0.069889260000000,36,'0','0'
0.069893780000000,36,'0','0'
0.069898320000000,36,'0','0'
0.069902840000000,36,'0','0'
0.069907380000000,36,'0','0'
0.069911920000000,36,'5','7'
0.569840320000000,,'135',}
0.569844020000000,,'227','230'
0.569848560000000,,@,' '
0.569853100000000,,'0','0'
