Time [s], Analyzer Name, Decoded Protocol Result
-0.000016460000000,SPI,MOSI: '135';  MISO: }
-0.000012760000000,SPI,MOSI: '227';  MISO: '229'
-0.000008220000000,SPI,MOSI: @;  MISO: '192'
-0.000003700000000,SPI,MOSI: '0';  MISO: '0'
0.000021240000000,SPI,MOSI: '129';  MISO: }
0.000024940000000,SPI,MOSI: '12';  MISO: '0'
0.000057500000000,SPI,MOSI: '184';  MISO: }
0.000061200000000,SPI,MOSI: '5';  MISO: '5'
0.000065740000000,SPI,MOSI: '0';  MISO: '0'
0.000070260000000,SPI,MOSI: '0';  MISO: '0'
0.000074780000000,SPI,MOSI: '0';  MISO: '0'
0.000079320000000,SPI,MOSI: '4';  MISO: '4'
0.000090400000000,SPI,MOSI: '128';  MISO: }
0.000094080000000,SPI,MOSI: };  MISO: }
0.000098620000000,SPI,MOSI: (;  MISO: }
0.000103140000000,SPI,MOSI: '12';  MISO: }
0.000107680000000,SPI,MOSI: '2';  MISO: }
0.000112200000000,SPI,MOSI: '179';  MISO: }
0.000730680000000,SPI,MOSI: '135';  MISO: '179'
0.000734380000000,SPI,MOSI: '230';  MISO: '227'
0.000738900000000,SPI,MOSI: ' ';  MISO: @
0.000749400000000,SPI,MOSI: '174';  MISO: '0'
0.000753080000000,SPI,MOSI: '136';  MISO: '144'
0.000757620000000,SPI,MOSI: };  MISO: '133'
0.000762140000000,SPI,MOSI: (;  MISO: '133'
0.000766680000000,SPI,MOSI: '12';  MISO: '133'
0.000771200000000,SPI,MOSI: '0';  MISO: '0'
0.000775720000000,SPI,MOSI: '0';  MISO: '0'
0.000780260000000,SPI,MOSI: '0';  MISO: '0'
0.000784780000000,SPI,MOSI: '0';  MISO: '0'
0.000789300000000,SPI,MOSI: '0';  MISO: '0'
0.000793840000000,SPI,MOSI: '0';  MISO: '0'
0.000798380000000,SPI,MOSI: '7';  MISO: '5'
0.000811860000000,SPI,MOSI: '129';  MISO: '0'
0.000815560000000,SPI,MOSI: '144';  MISO: '12'
0.000826060000000,SPI,MOSI: '137';  MISO: }
0.000829760000000,SPI,MOSI: '0';  MISO: '0'
0.000840260000000,SPI,MOSI: '165';  MISO: }
0.000843960000000,SPI,MOSI: '134';  MISO: '6'
0.009786460000000,SPI,MOSI: '129';  MISO: }
0.009790160000000,SPI,MOSI: '0';  MISO: '144'
0.009794680000000,SPI,MOSI: '0';  MISO: '0'
0.009799220000000,SPI,MOSI: '0';  MISO: '0'
0.009803740000000,SPI,MOSI: '210';  MISO: '210'
0.009808280000000,SPI,MOSI: '14';  MISO: '14'
0.009812800000000,SPI,MOSI: E;  MISO: E
0.009817340000000,SPI,MOSI: '227';  MISO: '230'
0.009821860000000,SPI,MOSI: @;  MISO: ' '
0.009826380000000,SPI,MOSI: '0';  MISO: '0'
0.009836840000000,SPI,MOSI: '165';  MISO: }
0.009840540000000,SPI,MOSI: '6';  MISO: '134'
0.009851000000000,SPI,MOSI: '174';  MISO: }
0.009854700000000,SPI,MOSI: '144';  MISO: '136'
0.009859220000000,SPI,MOSI: '133';  MISO: }
0.009863740000000,SPI,MOSI: '133';  MISO: (
0.009868260000000,SPI,MOSI: '133';  MISO: '12'
0.009872780000000,SPI,MOSI: '0';  MISO: '0'
0.009877300000000,SPI,MOSI: '0';  MISO: '0'
0.009881840000000,SPI,MOSI: '0';  MISO: '0'
0.009886360000000,SPI,MOSI: '0';  MISO: '0'
0.009890880000000,SPI,MOSI: '0';  MISO: '0'
0.009895420000000,SPI,MOSI: '0';  MISO: '0'
0.009899940000000,SPI,MOSI: '5';  MISO: '7'
0.029827960000000,SPI,MOSI: '135';  MISO: }
0.029831660000000,SPI,MOSI: '227';  MISO: '230'
0.029836200000000,SPI,MOSI: @;  MISO: ' '
0.029840740000000,SPI,MOSI: '0';  MISO: '0'
0.029865660000000,SPI,MOSI: '129';  MISO: }
0.029869360000000,SPI,MOSI: '12';  MISO: '0'
0.029901920000000,SPI,MOSI: '184';  MISO: }
0.029905620000000,SPI,MOSI: '5';  MISO: '5'
0.029910140000000,SPI,MOSI: '0';  MISO: '0'
0.029914680000000,SPI,MOSI: '0';  MISO: '0'
0.029919220000000,SPI,MOSI: '0';  MISO: '0'
0.029923740000000,SPI,MOSI: '4';  MISO: '4'
0.029934840000000,SPI,MOSI: '128';  MISO: }
0.029938540000000,SPI,MOSI: };  MISO: }
0.029943060000000,SPI,MOSI: (;  MISO: }
0.029947600000000,SPI,MOSI: '12';  MISO: }
0.029952120000000,SPI,MOSI: '2';  MISO: }
0.029956660000000,SPI,MOSI: '179';  MISO: }
0.030575400000000,SPI,MOSI: '135';  MISO: '179'
0.030579100000000,SPI,MOSI: '230';  MISO: '227'
0.030583620000000,SPI,MOSI: ' ';  MISO: @
0.030594120000000,SPI,MOSI: '174';  MISO: '0'
0.030597800000000,SPI,MOSI: '136';  MISO: '144'
0.030602340000000,SPI,MOSI: };  MISO: '133'
0.030606860000000,SPI,MOSI: (;  MISO: '133'
0.030611400000000,SPI,MOSI: '12';  MISO: '133'
0.030615940000000,SPI,MOSI: '0';  MISO: '0'
0.030620460000000,SPI,MOSI: '0';  MISO: '0'
0.030625000000000,SPI,MOSI: '0';  MISO: '0'
0.030629520000000,SPI,MOSI: '0';  MISO: '0'
0.030634060000000,SPI,MOSI: '0';  MISO: '0'
0.030638600000000,SPI,MOSI: '0';  MISO: '0'
0.030643140000000,SPI,MOSI: '7';  MISO: '5'
0.030656620000000,SPI,MOSI: '129';  MISO: '0'
0.030660320000000,SPI,MOSI: '144';  MISO: '12'
0.030670840000000,SPI,MOSI: '137';  MISO: }
0.030674540000000,SPI,MOSI: '0';  MISO: '0'
0.030685040000000,SPI,MOSI: '165';  MISO: }
0.030688740000000,SPI,MOSI: '134';  MISO: '6'
0.039789840000000,SPI,MOSI: '129';  MISO: }
0.039793540000000,SPI,MOSI: '0';  MISO: '144'
0.039798080000000,SPI,MOSI: '0';  MISO: '0'
0.039802620000000,SPI,MOSI: '0';  MISO: '0'
0.039807160000000,SPI,MOSI: '210';  MISO: '210'
0.039811700000000,SPI,MOSI: '14';  MISO: '14'
0.039816240000000,SPI,MOSI: E;  MISO: E
0.039820760000000,SPI,MOSI: '227';  MISO: '230'
0.039825300000000,SPI,MOSI: @;  MISO: ' '
0.039829840000000,SPI,MOSI: '0';  MISO: '0'
0.039840340000000,SPI,MOSI: '165';  MISO: }
0.039844040000000,SPI,MOSI: '6';  MISO: '134'
0.039854540000000,SPI,MOSI: '174';  MISO: }
0.039858240000000,SPI,MOSI: '144';  MISO: '136'
0.039862760000000,SPI,MOSI: '133';  MISO: }
0.039868720000000,SPI,MOSI: a;  MISO: '3'
0.039873260000000,SPI,MOSI: @;  MISO: '0'
0.039877780000000,SPI,MOSI: '0';  MISO: '0'
0.039882320000000,SPI,MOSI: '0';  MISO: '0'
0.039886840000000,SPI,MOSI: '0';  MISO: '0'
0.039891380000000,SPI,MOSI: '0';  MISO: '0'
0.039895900000000,SPI,MOSI: '0';  MISO: '0'
0.039900440000000,SPI,MOSI: '1';  MISO: '1'
0.069815380000000,SPI,MOSI: '135';  MISO: }
0.069819080000000,SPI,MOSI: '227';  MISO: '230'
0.069823600000000,SPI,MOSI: @;  MISO: ' '
0.069828140000000,SPI,MOSI: '0';  MISO: '0'
0.069853060000000,SPI,MOSI: '129';  MISO: }
0.069856760000000,SPI,MOSI: '12';  MISO: '0'
0.069889300000000,SPI,MOSI: '184';  MISO: }
0.069892980000000,SPI,MOSI: '5';  MISO: '5'
0.069897520000000,SPI,MOSI: '0';  MISO: '0'
0.069902040000000,SPI,MOSI: '0';  MISO: '0'
0.069906580000000,SPI,MOSI: '0';  MISO: '0'
0.069911100000000,SPI,MOSI: '4';  MISO: '4'
0.069922200000000,SPI,MOSI: '128';  MISO: }
0.069925880000000,SPI,MOSI: };  MISO: }
0.069930420000000,SPI,MOSI: (;  MISO: }
0.069934940000000,SPI,MOSI: '12';  MISO: }
0.069939460000000,SPI,MOSI: '2';  MISO: }
0.069944000000000,SPI,MOSI: '179';  MISO: }
0.070562440000000,SPI,MOSI: '135';  MISO: '179'
0.070566120000000,SPI,MOSI: '230';  MISO: '227'
0.070570660000000,SPI,MOSI: ' ';  MISO: @
0.070581140000000,SPI,MOSI: '174';  MISO: '0'
0.070584840000000,SPI,MOSI: '136';  MISO: '144'
0.070589360000000,SPI,MOSI: };  MISO: '133'
0.070593900000000,SPI,MOSI: (;  MISO: '133'
0.070598420000000,SPI,MOSI: '12';  MISO: '133'
0.070602960000000,SPI,MOSI: '0';  MISO: '0'
0.070607480000000,SPI,MOSI: '0';  MISO: '0'
0.070612020000000,SPI,MOSI: '0';  MISO: '0'
0.070616540000000,SPI,MOSI: '0';  MISO: '0'
0.070621060000000,SPI,MOSI: '0';  MISO: '0'
0.070625600000000,SPI,MOSI: '0';  MISO: '0'
0.070630120000000,SPI,MOSI: '7';  MISO: '5'
0.070643580000000,SPI,MOSI: '129';  MISO: '0'
0.070647280000000,SPI,MOSI: '144';  MISO: '12'
0.070657760000000,SPI,MOSI: '137';  MISO: }
0.070661460000000,SPI,MOSI: '0';  MISO: '0'
0.070671940000000,SPI,MOSI: '165';  MISO: }
0.070675640000000,SPI,MOSI: '134';  MISO: '6'
0.079807420000000,SPI,MOSI: '129';  MISO: }
0.079811120000000,SPI,MOSI: '0';  MISO: '144'
0.079815640000000,SPI,MOSI: '0';  MISO: '0'
0.079820180000000,SPI,MOSI: '0';  MISO: '0'
0.079824700000000,SPI,MOSI: '210';  MISO: '210'
0.079829240000000,SPI,MOSI: '14';  MISO: '14'
0.079833760000000,SPI,MOSI: E;  MISO: E
0.079838300000000,SPI,MOSI: '227';  MISO: '230'
0.079842820000000,SPI,MOSI: @;  MISO: ' '
0.079847360000000,SPI,MOSI: '0';  MISO: '0'
0.079857840000000,SPI,MOSI: '165';  MISO: }
0.079861540000000,SPI,MOSI: '6';  MISO: '134'
0.079872020000000,SPI,MOSI: '174';  MISO: }
0.079875960000000,SPI,MOSI: !;  MISO: '16'
0.079880480000000,SPI,MOSI: '11';  MISO: '250'
0.079886200000000,SPI,MOSI: a;  MISO: '3'
0.079890740000000,SPI,MOSI: @;  MISO: '0'
0.079895260000000,SPI,MOSI: '0';  MISO: '0'
0.079899780000000,SPI,MOSI: '0';  MISO: '0'
0.079904300000000,SPI,MOSI: '0';  MISO: '0'
0.079908840000000,SPI,MOSI: '0';  MISO: '0'
0.079913360000000,SPI,MOSI: '0';  MISO: '0'
0.079917880000000,SPI,MOSI: '1';  MISO: '1'
0.579842740000000,SPI,MOSI: '135';  MISO: }
0.579846420000000,SPI,MOSI: '227';  MISO: '230'
0.579850960000000,SPI,MOSI: @;  MISO: ' '
0.579855500000000,SPI,MOSI: '0';  MISO: '0'
