Time [s],Packet ID,MOSI,MISO
-0.000016460000000,0,'135' (0x87),} (0x7D)
-0.000012760000000,0,'227' (0xE3),'229' (0xE5)
-0.000008220000000,0,@ (0x40),'192' (0xC0)
-0.000003700000000,0,'0' (0x00),'0' (0x00)
0.000021240000000,1,'129' (0x81),} (0x7D)
0.000024940000000,1,'12' (0x0C),'0' (0x00)
0.000057500000000,2,'184' (0xB8),} (0x7D)
0.000061200000000,2,'5' (0x05),'5' (0x05)
0.000065740000000,2,'0' (0x00),'0' (0x00)
0.000070260000000,2,'0' (0x00),'0' (0x00)
0.000074780000000,2,'0' (0x00),'0' (0x00)
0.000079320000000,2,'4' (0x04),'4' (0x04)
0.000090400000000,3,'128' (0x80),} (0x7D)
0.000094080000000,3,} (0x7D),} (0x7D)
0.000098620000000,3,( (0x28),} (0x7D)
0.000103140000000,3,'12' (0x0C),} (0x7D)
0.000107680000000,3,'2' (0x02),} (0x7D)
0.000112200000000,3,'179' (0xB3),} (0x7D)
0.000730680000000,4,'135' (0x87),'179' (0xB3)
0.000734380000000,4,'230' (0xE6),'227' (0xE3)
0.000738900000000,4,' ' (0x20),@ (0x40)
0.000749400000000,5,'174' (0xAE),'0' (0x00)
0.000753080000000,5,'136' (0x88),'144' (0x90)
0.000757620000000,5,} (0x7D),'133' (0x85)
0.000762140000000,5,( (0x28),'133' (0x85)
0.000766680000000,5,'12' (0x0C),'133' (0x85)
0.000771200000000,5,'0' (0x00),'0' (0x00)
0.000775720000000,5,'0' (0x00),'0' (0x00)
0.000780260000000,5,'0' (0x00),'0' (0x00)
0.000784780000000,5,'0' (0x00),'0' (0x00)
0.000789300000000,5,'0' (0x00),'0' (0x00)
0.000793840000000,5,'0' (0x00),'0' (0x00)
0.000798380000000,5,'7' (0x07),'5' (0x05)
0.000811860000000,6,'129' (0x81),'0' (0x00)
0.000815560000000,6,'144' (0x90),'12' (0x0C)
0.000826060000000,7,'137' (0x89),} (0x7D)
0.000829760000000,7,'0' (0x00),'0' (0x00)
0.000840260000000,8,'165' (0xA5),} (0x7D)
0.000843960000000,8,'134' (0x86),'6' (0x06)
0.009786460000000,9,'129' (0x81),} (0x7D)
0.009790160000000,9,'0' (0x00),'144' (0x90)
0.009794680000000,9,'0' (0x00),'0' (0x00)
0.009799220000000,9,'0' (0x00),'0' (0x00)
0.009803740000000,9,'210' (0xD2),'210' (0xD2)
0.009808280000000,9,'14' (0x0E),'14' (0x0E)
0.009812800000000,9,E (0x45),E (0x45)
0.009817340000000,9,'227' (0xE3),'230' (0xE6)
0.009821860000000,9,@ (0x40),' ' (0x20)
0.009826380000000,9,'0' (0x00),'0' (0x00)
0.009836840000000,10,'165' (0xA5),} (0x7D)
0.009840540000000,10,'6' (0x06),'134' (0x86)
0.009851000000000,11,'174' (0xAE),} (0x7D)
0.009854700000000,11,'144' (0x90),'136' (0x88)
0.009859220000000,11,'133' (0x85),} (0x7D)
0.009863740000000,11,'133' (0x85),( (0x28)
0.009868260000000,11,'133' (0x85),'12' (0x0C)
0.009872780000000,11,'0' (0x00),'0' (0x00)
0.009877300000000,11,'0' (0x00),'0' (0x00)
0.009881840000000,11,'0' (0x00),'0' (0x00)
0.009886360000000,11,'0' (0x00),'0' (0x00)
0.009890880000000,11,'0' (0x00),'0' (0x00)
0.009895420000000,11,'0' (0x00),'0' (0x00)
0.009899940000000,11,'5' (0x05),'7' (0x07)
0.029827960000000,12,'135' (0x87),} (0x7D)
0.029831660000000,12,'227' (0xE3),'230' (0xE6)
0.029836200000000,12,@ (0x40),' ' (0x20)
0.029840740000000,12,'0' (0x00),'0' (0x00)
0.029865660000000,13,'129' (0x81),} (0x7D)
0.029869360000000,13,'12' (0x0C),'0' (0x00)
0.029901920000000,14,'184' (0xB8),} (0x7D)
0.029905620000000,14,'5' (0x05),'5' (0x05)
0.029910140000000,14,'0' (0x00),'0' (0x00)
0.029914680000000,14,'0' (0x00),'0' (0x00)
0.029919220000000,14,'0' (0x00),'0' (0x00)
0.029923740000000,14,'4' (0x04),'4' (0x04)
0.029934840000000,15,'128' (0x80),} (0x7D)
0.029938540000000,15,} (0x7D),} (0x7D)
0.029943060000000,15,( (0x28),} (0x7D)
0.029947600000000,15,'12' (0x0C),} (0x7D)
0.029952120000000,15,'2' (0x02),} (0x7D)
0.029956660000000,15,'179' (0xB3),} (0x7D)
0.030575400000000,16,'135' (0x87),'179' (0xB3)
0.030579100000000,16,'230' (0xE6),'227' (0xE3)
0.030583620000000,16,' ' (0x20),@ (0x40)
0.030594120000000,17,'174' (0xAE),'0' (0x00)
0.030597800000000,17,'136' (0x88),'144' (0x90)
0.030602340000000,17,} (0x7D),'133' (0x85)
0.030606860000000,17,( (0x28),'133' (0x85)
0.030611400000000,17,'12' (0x0C),'133' (0x85)
0.030615940000000,17,'0' (0x00),'0' (0x00)
0.030620460000000,17,'0' (0x00),'0' (0x00)
0.030625000000000,17,'0' (0x00),'0' (0x00)
0.030629520000000,17,'0' (0x00),'0' (0x00)
0.030634060000000,17,'0' (0x00),'0' (0x00)
0.030638600000000,17,'0' (0x00),'0' (0x00)
0.030643140000000,17,'7' (0x07),'5' (0x05)
0.030656620000000,18,'129' (0x81),'0' (0x00)
0.030660320000000,18,'144' (0x90),'12' (0x0C)
0.030670840000000,19,'137' (0x89),} (0x7D)
0.030674540000000,19,'0' (0x00),'0' (0x00)
0.030685040000000,20,'165' (0xA5),} (0x7D)
0.030688740000000,20,'134' (0x86),'6' (0x06)
0.039789840000000,21,'129' (0x81),} (0x7D)
0.039793540000000,21,'0' (0x00),'144' (0x90)
0.039798080000000,21,'0' (0x00),'0' (0x00)
0.039802620000000,21,'0' (0x00),'0' (0x00)
0.039807160000000,21,'210' (0xD2),'210' (0xD2)
0.039811700000000,21,'14' (0x0E),'14' (0x0E)
0.039816240000000,21,E (0x45),E (0x45)
0.039820760000000,21,'227' (0xE3),'230' (0xE6)
0.039825300000000,21,@ (0x40),' ' (0x20)
0.039829840000000,21,'0' (0x00),'0' (0x00)
0.039840340000000,22,'165' (0xA5),} (0x7D)
0.039844040000000,22,'6' (0x06),'134' (0x86)
0.039854540000000,23,'174' (0xAE),} (0x7D)
0.039858240000000,23,'144' (0x90),'136' (0x88)
0.039862760000000,23,'133' (0x85),} (0x7D)
0.039868720000000,24,a (0x61),'3' (0x03)
0.039873260000000,24,@ (0x40),'0' (0x00)
0.039877780000000,24,'0' (0x00),'0' (0x00)
0.039882320000000,24,'0' (0x00),'0' (0x00)
0.039886840000000,24,'0' (0x00),'0' (0x00)
0.039891380000000,24,'0' (0x00),'0' (0x00)
0.039895900000000,24,'0' (0x00),'0' (0x00)
0.039900440000000,24,'1' (0x01),'1' (0x01)
0.069815380000000,25,'135' (0x87),} (0x7D)
0.069819080000000,25,'227' (0xE3),'230' (0xE6)
0.069823600000000,25,@ (0x40),' ' (0x20)
0.069828140000000,25,'0' (0x00),'0' (0x00)
0.069853060000000,26,'129' (0x81),} (0x7D)
0.069856760000000,26,'12' (0x0C),'0' (0x00)
0.069889300000000,27,'184' (0xB8),} (0x7D)
0.069892980000000,27,'5' (0x05),'5' (0x05)
0.069897520000000,27,'0' (0x00),'0' (0x00)
0.069902040000000,27,'0' (0x00),'0' (0x00)
0.069906580000000,27,'0' (0x00),'0' (0x00)
0.069911100000000,27,'4' (0x04),'4' (0x04)
0.069922200000000,28,'128' (0x80),} (0x7D)
0.069925880000000,28,} (0x7D),} (0x7D)
0.069930420000000,28,( (0x28),} (0x7D)
0.069934940000000,28,'12' (0x0C),} (0x7D)
0.069939460000000,28,'2' (0x02),} (0x7D)
0.069944000000000,28,'179' (0xB3),} (0x7D)
0.070562440000000,29,'135' (0x87),'179' (0xB3)
0.070566120000000,29,'230' (0xE6),'227' (0xE3)
0.070570660000000,29,' ' (0x20),@ (0x40)
0.070581140000000,30,'174' (0xAE),'0' (0x00)
0.070584840000000,30,'136' (0x88),'144' (0x90)
0.070589360000000,30,} (0x7D),'133' (0x85)
0.070593900000000,30,( (0x28),'133' (0x85)
0.070598420000000,30,'12' (0x0C),'133' (0x85)
0.070602960000000,30,'0' (0x00),'0' (0x00)
0.070607480000000,30,'0' (0x00),'0' (0x00)
0.070612020000000,30,'0' (0x00),'0' (0x00)
0.070616540000000,30,'0' (0x00),'0' (0x00)
0.070621060000000,30,'0' (0x00),'0' (0x00)
0.070625600000000,30,'0' (0x00),'0' (0x00)
0.070630120000000,30,'7' (0x07),'5' (0x05)
0.070643580000000,31,'129' (0x81),'0' (0x00)
0.070647280000000,31,'144' (0x90),'12' (0x0C)
0.070657760000000,32,'137' (0x89),} (0x7D)
0.070661460000000,32,'0' (0x00),'0' (0x00)
0.070671940000000,33,'165' (0xA5),} (0x7D)
0.070675640000000,33,'134' (0x86),'6' (0x06)
0.079807420000000,34,'129' (0x81),} (0x7D)
0.079811120000000,34,'0' (0x00),'144' (0x90)
0.079815640000000,34,'0' (0x00),'0' (0x00)
0.079820180000000,34,'0' (0x00),'0' (0x00)
0.079824700000000,34,'210' (0xD2),'210' (0xD2)
0.079829240000000,34,'14' (0x0E),'14' (0x0E)
0.079833760000000,34,E (0x45),E (0x45)
0.079838300000000,34,'227' (0xE3),'230' (0xE6)
0.079842820000000,34,@ (0x40),' ' (0x20)
0.079847360000000,34,'0' (0x00),'0' (0x00)
0.079857840000000,35,'165' (0xA5),} (0x7D)
0.079861540000000,35,'6' (0x06),'134' (0x86)
0.079872020000000,36,'174' (0xAE),} (0x7D)
0.079875960000000,37,! (0x21),'16' (0x10)
0.079880480000000,38,'11' (0x0B),'250' (0xFA)
0.079886200000000,39,a (0x61),'3' (0x03)
0.079890740000000,39,@ (0x40),'0' (0x00)
0.079895260000000,39,'0' (0x00),'0' (0x00)
0.079899780000000,39,'0' (0x00),'0' (0x00)
0.079904300000000,39,'0' (0x00),'0' (0x00)
0.079908840000000,39,'0' (0x00),'0' (0x00)
0.079913360000000,39,'0' (0x00),'0' (0x00)
0.079917880000000,39,'1' (0x01),'1' (0x01)
0.579842740000000,,'135' (0x87),} (0x7D)
0.579846420000000,,'227' (0xE3),'230' (0xE6)
0.579850960000000,,@ (0x40),' ' (0x20)
0.579855500000000,,'0' (0x00),'0' (0x00)
