Time [s],Packet ID,MOSI,MISO
-0.000016440000000,0,'135',}
-0.000012740000000,0,'227','230'
-0.000008220000000,0,'192',' '
-0.000003680000000,0,'0','0'
0.000021240000000,1,'129',}
0.000024940000000,1,'12','0'
0.000057480000000,2,'184',}
0.000061180000000,2,'5','5'
0.000065720000000,2,'0','0'
0.000070240000000,2,'0','0'
0.000074780000000,2,'0','0'
0.000079300000000,2,'4','4'
0.000090400000000,3,'128',}
0.000094100000000,3,},}
0.000098620000000,3,(,}
0.000103160000000,3,'12',}
0.000107700000000,3,'2',}
0.000730720000000,4,'135','179'
0.000734420000000,4,'230','227'
0.000738940000000,4,'128','192'
0.000749440000000,5,'174','0'
0.000753140000000,5,'136','144'
0.000757680000000,5,},'133'
0.000762200000000,5,(,'133'
0.000766740000000,5,'12','133'
0.000771260000000,5,'0','0'
0.000775800000000,5,'0','0'
0.000780320000000,5,'0','0'
0.000784840000000,5,'0','0'
0.000789380000000,5,'0','0'
0.000793900000000,5,'0','0'
0.000798420000000,5,'7','5'
0.000811880000000,6,'129','0'
0.000815580000000,6,'144','12'
0.000826060000000,7,'137',}
0.000829760000000,7,'0','0'
0.000840260000000,8,'165',}
0.000843940000000,8,'134','6'
0.009791520000000,9,'129',}
0.009795200000000,9,'0','144'
0.009799740000000,9,'0','0'
0.009804260000000,9,'0','0'
0.009808800000000,9,'210','210'
0.009813340000000,9,'14','14'
0.009817860000000,9,E,E
0.009822400000000,9,'227','230'
0.009826940000000,9,'192','128'
0.009831460000000,9,'0','0'
0.009841960000000,10,'165',}
0.009845660000000,10,'6','134'
0.009856140000000,11,'174',}
0.009860080000000,12,!,'16'
0.009864620000000,12,'11','250'
0.009870340000000,13,a,'3'
0.009874880000000,13,@,'0'
0.009879400000000,13,'0','0'
0.009883940000000,13,'0','0'
0.009888480000000,13,'0','0'
0.009893020000000,13,'0','0'
0.009897540000000,13,'0','0'
0.009902080000000,13,'1','1'
0.019832320000000,14,'135',}
0.019836000000000,14,'227','230'
0.019840540000000,14,'192','128'
0.019845080000000,14,'0','0'
0.019870020000000,15,'129',}
0.019873720000000,15,'12','0'
0.019906300000000,16,'184',}
0.019910000000000,16,'5','5'
0.019914520000000,16,'0','0'
0.019919060000000,16,'0','0'
0.019923580000000,16,'0','0'
0.019928120000000,16,'4','4'
0.019939220000000,17,'128',}
0.019942900000000,17,},}
0.019947440000000,17,(,}
0.019951980000000,17,'12',}
0.019956520000000,17,'2',}
0.019961040000000,17,'179',}
0.020579660000000,18,'135','179'
0.020583360000000,18,'230','227'
0.020587880000000,18,'128','192'
0.020598360000000,19,'174','0'
0.020602060000000,19,'136','144'
0.020606580000000,19,},'133'
0.020611120000000,19,(,'133'
0.020615640000000,19,'12','133'
0.020620180000000,19,'0','0'
0.020624700000000,19,'0','0'
0.020629220000000,19,'0','0'
0.020633760000000,19,'0','0'
0.020638280000000,19,'0','0'
0.020642820000000,19,'0','0'
0.020647340000000,19,'7','5'
0.020660800000000,20,'129','0'
0.020664500000000,20,'144','12'
0.020674980000000,21,'137',}
0.020678680000000,21,'0','0'
0.020689160000000,22,'165',}
0.020692860000000,22,'134','6'
0.029792680000000,23,'129',}
0.029796360000000,23,'0','144'
0.029800900000000,23,'0','0'
0.029805420000000,23,'0','0'
0.029809940000000,23,'210','210'
0.029814480000000,23,'14','14'
0.029819000000000,23,E,E
0.029823520000000,23,'227','230'
0.029828060000000,23,'192','128'
0.029832580000000,23,'0','0'
0.029843060000000,24,'165',}
0.029846760000000,24,'6','134'
0.029857240000000,25,'174',}
0.029860940000000,25,'144','136'
0.029865700000000,26,'11','250'
0.029871420000000,27,a,'3'
0.029875940000000,27,@,'0'
0.029880480000000,27,'0','0'
0.029885020000000,27,'0','0'
0.029889540000000,27,'0','0'
0.029894080000000,27,'0','0'
0.029898620000000,27,'0','0'
0.029903140000000,27,'1','1'
0.049814840000000,28,'135',}
0.049818520000000,28,'227','230'
0.049823060000000,28,'192','128'
0.049827580000000,28,'0','0'
0.049852480000000,29,'129',}
0.049856180000000,29,'12','0'
0.049888700000000,30,'184',}
0.049892400000000,30,'5','5'
0.049896920000000,30,'0','0'
0.049901440000000,30,'0','0'
0.049905980000000,30,'0','0'
0.049910500000000,30,'4','4'
0.049921580000000,31,'128',}
0.049925260000000,31,},}
0.049929800000000,31,(,}
0.049934320000000,31,'12',}
0.049938840000000,31,'2',}
0.050562040000000,32,'135','179'
0.050565720000000,32,'230','227'
0.050570260000000,32,'128','192'
0.050580760000000,33,'174','0'
0.050584460000000,33,'136','144'
0.050589000000000,33,},'133'
0.050593540000000,33,(,'133'
0.050598060000000,33,'12','133'
0.050602600000000,33,'0','0'
0.050607140000000,33,'0','0'
0.050611660000000,33,'0','0'
0.050616200000000,33,'0','0'
0.050620740000000,33,'0','0'
0.050625260000000,33,'0','0'
0.050629800000000,33,'7','5'
0.050643280000000,34,'129','0'
0.050646960000000,34,'144','12'
0.050657460000000,35,'137',}
0.050661160000000,35,'0','0'
0.050671660000000,36,'165',}
0.050675360000000,36,'134','6'
0.059776000000000,37,'129',}
0.059779700000000,37,'0','144'
0.059784240000000,37,'0','0'
0.059788780000000,37,'0','0'
0.059793300000000,37,'210','210'
0.059797840000000,37,'14','14'
0.059802380000000,37,E,E
0.059806900000000,37,'227','230'
0.059811440000000,37,'192','128'
0.059815980000000,37,'0','0'
0.059826480000000,38,'165',}
0.059830160000000,38,'6','134'
0.059840660000000,39,'174',}
0.059845320000000,40,'8','135'
0.059849860000000,40,X,'210'
0.059854860000000,41,a,'3'
0.059859400000000,41,@,'0'
0.059863940000000,41,'0','0'
0.059868460000000,41,'0','0'
0.059873000000000,41,'0','0'
0.059877540000000,41,'0','0'
0.059882080000000,41,'0','0'
0.059886620000000,41,'1','1'
0.559843700000000,,'135',}
0.559847400000000,,'227','230'
0.559851920000000,,@,'128'
0.559856440000000,,'0','0'
