Time [s],Packet ID,MOSI,MISO
-0.000016480000000,0,'135',}
-0.000012760000000,0,'227','230'
-0.000008220000000,0,'128','128'
-0.000003700000000,0,'0','0'
0.000021240000000,1,'129',}
0.000024920000000,1,'12','0'
0.000057500000000,2,'184',}
0.000061180000000,2,'5','5'
0.000065720000000,2,'0','0'
0.000070260000000,2,'0','0'
0.000074780000000,2,'0','0'
0.000079320000000,2,'4','4'
0.000090420000000,3,'128',}
0.000094100000000,3,},}
0.000098640000000,3,(,}
0.000103160000000,3,'12',}
0.000107700000000,3,'2',}
0.000112240000000,3,'179',}
0.000730380000000,4,'135','179'
0.000734080000000,4,'230','227'
0.000738620000000,4,'192','128'
0.000749120000000,5,'174','0'
0.000752800000000,5,'136','144'
0.000757340000000,5,},'133'
0.000761880000000,5,(,'133'
0.000766400000000,5,'12','133'
0.000770940000000,5,'0','0'
0.000775460000000,5,'0','0'
0.000780000000000,5,'0','0'
0.000784520000000,5,'0','0'
0.000789040000000,5,'0','0'
0.000793580000000,5,'0','0'
0.000798100000000,5,'7','5'
0.000811580000000,6,'129','0'
0.000815280000000,6,'144','12'
0.000825760000000,7,'137',}
0.000829480000000,7,'0','0'
0.000839960000000,8,'165',}
0.000843660000000,8,'134','6'
0.009787880000000,9,'129',}
0.009791600000000,9,'0','144'
0.009796120000000,9,'0','0'
0.009800660000000,9,'0','0'
0.009805180000000,9,'210','210'
0.009809720000000,9,'14','14'
0.009814260000000,9,E,E
0.009818780000000,9,'227','230'
0.009823320000000,9,'128','192'
0.009827860000000,9,'0','0'
0.009838340000000,10,'165',}
0.009842040000000,10,'6','134'
0.009852540000000,11,'174',}
0.009856240000000,11,'144','136'
0.009862200000000,12,a,J
0.009866740000000,12,a,'3'
0.009871260000000,13,@,'0'
0.009875800000000,13,'0','0'
0.009880320000000,13,'0','0'
0.009884860000000,13,'0','0'
0.009889380000000,13,'0','0'
0.009893920000000,13,'0','0'
0.009898460000000,13,'1','1'
0.019829540000000,14,'135',}
0.019833240000000,14,'227','230'
0.019837760000000,14,'128','192'
0.019842300000000,14,'0','0'
0.019867180000000,15,'129',}
0.019870880000000,15,'12','0'
0.019903380000000,16,'184',}
0.019907080000000,16,'5','5'
0.019911620000000,16,'0','0'
0.019916140000000,16,'0','0'
0.019920660000000,16,'0','0'
0.019925180000000,16,'4','4'
0.019936260000000,17,'128',}
0.019939960000000,17,},}
0.019944480000000,17,(,}
0.019949020000000,17,'12',}
0.019953540000000,17,'2',}
0.019958060000000,17,'179',}
0.020576600000000,18,'135','179'
0.020580300000000,18,'230','227'
0.020584840000000,18,'192','128'
0.020595340000000,19,'174','0'
0.020599040000000,19,'136','144'
0.020603560000000,19,},'133'
0.020608100000000,19,(,'133'
0.020612620000000,19,'12','133'
0.020617160000000,19,'0','0'
0.020621700000000,19,'0','0'
0.020626220000000,19,'0','0'
0.020630760000000,19,'0','0'
0.020635300000000,19,'0','0'
0.020639820000000,19,'0','0'
0.020644360000000,19,'7','5'
0.020657840000000,20,'129','0'
0.020661540000000,20,'144','12'
0.020672040000000,21,'137',}
0.020675720000000,21,'0','0'
0.020686220000000,22,'165',}
0.020689920000000,22,'134','6'
0.029794260000000,23,'129',}
0.029797960000000,23,'0','144'
0.029802480000000,23,'0','0'
0.029807020000000,23,'0','0'
0.029811540000000,23,'210','210'
0.029816060000000,23,'14','14'
0.029820600000000,23,E,E
0.029825120000000,23,'227','230'
0.029829660000000,23,'128','192'
0.029834180000000,23,'0','0'
0.029844660000000,24,'165',}
0.029848360000000,24,'6','134'
0.029858840000000,25,'174',}
0.029863480000000,26,'8','135'
0.029871820000000,27,'11',P
0.029877540000000,28,@,'0'
0.029882080000000,28,'0','0'
0.029886600000000,28,'0','0'
0.029891120000000,28,'0','0'
0.029895660000000,28,'0','0'
0.029900180000000,28,'0','0'
0.029904720000000,28,'1','1'
0.069848100000000,29,'135',}
0.069851780000000,29,'227','230'
0.069856320000000,29,'128','192'
0.069860860000000,29,'0','0'
0.069885780000000,30,'129',}
0.069889480000000,30,'12','0'
0.069922020000000,31,'184',}
0.069925720000000,31,'5','5'
0.069930260000000,31,'0','0'
0.069934800000000,31,'0','0'
0.069939320000000,31,'0','0'
0.069943860000000,31,'4','4'
0.069954940000000,32,'128',}
0.069958640000000,32,},}
0.069963180000000,32,(,}
0.069967700000000,32,'12',}
0.069972240000000,32,'2',}
0.070595160000000,33,'135','179'
0.070598860000000,33,'230','227'
0.070603380000000,33,'192','128'
0.070613880000000,34,'174','0'
0.070617580000000,34,'136','144'
0.070622120000000,34,},'133'
0.070626640000000,34,(,'133'
0.070631180000000,34,'12','133'
0.070635720000000,34,'0','0'
0.070640240000000,34,'0','0'
0.070644780000000,34,'0','0'
0.070649320000000,34,'0','0'
0.070653860000000,34,'0','0'
0.070658400000000,34,'0','0'
0.070662920000000,34,'7','5'
0.070676400000000,35,'129','0'
0.070680100000000,35,'144','12'
0.070690580000000,36,'137',}
0.070694280000000,36,'0','0'
0.070704760000000,37,'165',}
0.070708440000000,37,'134','6'
0.079808740000000,38,'129',}
0.079812420000000,38,'0','144'
0.079816960000000,38,'0','0'
0.079821480000000,38,'0','0'
0.079826000000000,38,'210','210'
0.079830520000000,38,'14','14'
0.079835040000000,38,E,E
0.079839580000000,38,'227','230'
0.079844100000000,38,'128','192'
0.079848640000000,38,'0','0'
0.079859120000000,39,'165',}
0.079862800000000,39,'6','134'
0.079873300000000,40,'174',}
0.079877940000000,41,'8','135'
0.079882480000000,41,X,'210'
0.079887000000000,41,X,'128'
0.079891520000000,41,P,'192'
0.079896060000000,41,'0','0'
0.079900580000000,41,'0','0'
0.079905120000000,41,'0','0'
0.079909640000000,41,'0','0'
0.079914180000000,41,'0','0'
0.079918700000000,41,'0','0'
0.579848500000000,,'135',}
0.579852200000000,,'227','230'
0.579856740000000,,@,'192'
0.579861260000000,,'0','0'
