Time [s], Analyzer Name, Decoded Protocol Result
0.000001800000000,SPI,MOSI: '135' (0x87);  MISO: } (0x7D)
0.000005480000000,SPI,MOSI: '229' (0xE5);  MISO: '227' (0xE3)
0.000010000000000,SPI,MOSI: '192' (0xC0);  MISO: '128' (0x80)
0.000014560000000,SPI,MOSI: '0' (0x00);  MISO: '0' (0x00)
0.000039440000000,SPI,MOSI: '129' (0x81);  MISO: } (0x7D)
0.000043160000000,SPI,MOSI: '12' (0x0C);  MISO: '0' (0x00)
0.000075720000000,SPI,MOSI: '184' (0xB8);  MISO: } (0x7D)
0.000079400000000,SPI,MOSI: '5' (0x05);  MISO: '5' (0x05)
0.000083960000000,SPI,MOSI: '0' (0x00);  MISO: '0' (0x00)
0.000088480000000,SPI,MOSI: '0' (0x00);  MISO: '0' (0x00)
0.000093000000000,SPI,MOSI: '0' (0x00);  MISO: '0' (0x00)
0.000097560000000,SPI,MOSI: '4' (0x04);  MISO: '4' (0x04)
0.000108640000000,SPI,MOSI: '128' (0x80);  MISO: } (0x7D)
0.000112320000000,SPI,MOSI: } (0x7D);  MISO: } (0x7D)
0.000116880000000,SPI,MOSI: ( (0x28);  MISO: } (0x7D)
0.000121400000000,SPI,MOSI: '12' (0x0C);  MISO: } (0x7D)
0.000125920000000,SPI,MOSI: '2' (0x02);  MISO: } (0x7D)
0.000130480000000,SPI,MOSI: '179' (0xB3);  MISO: } (0x7D)
0.000748760000000,SPI,MOSI: '135' (0x87);  MISO: '179' (0xB3)
0.000752480000000,SPI,MOSI: '227' (0xE3);  MISO: '229' (0xE5)
0.000757000000000,SPI,MOSI: '128' (0x80);  MISO: '192' (0xC0)
0.000767480000000,SPI,MOSI: '174' (0xAE);  MISO: '179' (0xB3)
0.000771200000000,SPI,MOSI: '136' (0x88);  MISO: '144' (0x90)
0.000775720000000,SPI,MOSI: } (0x7D);  MISO: '133' (0x85)
0.000780240000000,SPI,MOSI: ( (0x28);  MISO: '133' (0x85)
0.000784760000000,SPI,MOSI: '12' (0x0C);  MISO: '133' (0x85)
0.000789320000000,SPI,MOSI: '0' (0x00);  MISO: '0' (0x00)
0.000793840000000,SPI,MOSI: '0' (0x00);  MISO: '0' (0x00)
0.000798360000000,SPI,MOSI: '0' (0x00);  MISO: '0' (0x00)
0.000802880000000,SPI,MOSI: '0' (0x00);  MISO: '0' (0x00)
0.000807440000000,SPI,MOSI: '0' (0x00);  MISO: '0' (0x00)
0.000811960000000,SPI,MOSI: '0' (0x00);  MISO: '0' (0x00)
0.000816480000000,SPI,MOSI: '7' (0x07);  MISO: '5' (0x05)
0.000842360000000,SPI,MOSI: '129' (0x81);  MISO: '151' (0x97)
0.000846080000000,SPI,MOSI: '144' (0x90);  MISO: '12' (0x0C)
0.000856560000000,SPI,MOSI: '137' (0x89);  MISO: } (0x7D)
0.000860280000000,SPI,MOSI: '0' (0x00);  MISO: '0' (0x00)
0.000870760000000,SPI,MOSI: '165' (0xA5);  MISO: } (0x7D)
0.000874480000000,SPI,MOSI: '134' (0x86);  MISO: '6' (0x06)
0.009819320000000,SPI,MOSI: '129' (0x81);  MISO: } (0x7D)
0.009823040000000,SPI,MOSI: '0' (0x00);  MISO: '144' (0x90)
0.009827560000000,SPI,MOSI: '0' (0x00);  MISO: '0' (0x00)
0.009832080000000,SPI,MOSI: '0' (0x00);  MISO: '0' (0x00)
0.009836600000000,SPI,MOSI: '210' (0xD2);  MISO: '210' (0xD2)
0.009841160000000,SPI,MOSI: '14' (0x0E);  MISO: '14' (0x0E)
0.009845680000000,SPI,MOSI: E (0x45);  MISO: E (0x45)
0.009850200000000,SPI,MOSI: '229' (0xE5);  MISO: '227' (0xE3)
0.009854720000000,SPI,MOSI: '192' (0xC0);  MISO: '128' (0x80)
0.009859280000000,SPI,MOSI: '0' (0x00);  MISO: '0' (0x00)
0.009869760000000,SPI,MOSI: '165' (0xA5);  MISO: } (0x7D)
0.009873440000000,SPI,MOSI: '6' (0x06);  MISO: '134' (0x86)
0.009883960000000,SPI,MOSI: '174' (0xAE);  MISO: } (0x7D)
0.009887640000000,SPI,MOSI: '144' (0x90);  MISO: '136' (0x88)
0.009892160000000,SPI,MOSI: '133' (0x85);  MISO: } (0x7D)
0.009896680000000,SPI,MOSI: '133' (0x85);  MISO: ( (0x28)
0.009901240000000,SPI,MOSI: '133' (0x85);  MISO: '12' (0x0C)
0.009905760000000,SPI,MOSI: '0' (0x00);  MISO: '0' (0x00)
0.009910280000000,SPI,MOSI: '0' (0x00);  MISO: '0' (0x00)
0.009914800000000,SPI,MOSI: '0' (0x00);  MISO: '0' (0x00)
0.009919360000000,SPI,MOSI: '0' (0x00);  MISO: '0' (0x00)
0.009923880000000,SPI,MOSI: '0' (0x00);  MISO: '0' (0x00)
0.009928400000000,SPI,MOSI: '0' (0x00);  MISO: '0' (0x00)
0.009932920000000,SPI,MOSI: '5' (0x05);  MISO: '7' (0x07)
0.029865080000000,SPI,MOSI: '135' (0x87);  MISO: } (0x7D)
0.029868800000000,SPI,MOSI: '229' (0xE5);  MISO: '227' (0xE3)
0.029873320000000,SPI,MOSI: '192' (0xC0);  MISO: '128' (0x80)
0.029877880000000,SPI,MOSI: '0' (0x00);  MISO: '0' (0x00)
0.029902800000000,SPI,MOSI: '129' (0x81);  MISO: } (0x7D)
0.029906480000000,SPI,MOSI: '12' (0x0C);  MISO: '0' (0x00)
0.029939040000000,SPI,MOSI: '184' (0xB8);  MISO: } (0x7D)
0.029942760000000,SPI,MOSI: '5' (0x05);  MISO: '5' (0x05)
0.029947280000000,SPI,MOSI: '0' (0x00);  MISO: '0' (0x00)
0.029951840000000,SPI,MOSI: '0' (0x00);  MISO: '0' (0x00)
0.029956360000000,SPI,MOSI: '0' (0x00);  MISO: '0' (0x00)
0.029960920000000,SPI,MOSI: '4' (0x04);  MISO: '4' (0x04)
0.029972000000000,SPI,MOSI: '128' (0x80);  MISO: } (0x7D)
0.029975720000000,SPI,MOSI: } (0x7D);  MISO: } (0x7D)
0.029980280000000,SPI,MOSI: ( (0x28);  MISO: } (0x7D)
0.029984800000000,SPI,MOSI: '12' (0x0C);  MISO: } (0x7D)
0.029989360000000,SPI,MOSI: '2' (0x02);  MISO: } (0x7D)
0.029993880000000,SPI,MOSI: '179' (0xB3);  MISO: } (0x7D)
0.030612600000000,SPI,MOSI: '135' (0x87);  MISO: '179' (0xB3)
0.030616320000000,SPI,MOSI: '227' (0xE3);  MISO: '229' (0xE5)
0.030620840000000,SPI,MOSI: '128' (0x80);  MISO: '192' (0xC0)
0.030631320000000,SPI,MOSI: '174' (0xAE);  MISO: '179' (0xB3)
0.030635040000000,SPI,MOSI: '136' (0x88);  MISO: '144' (0x90)
0.030639560000000,SPI,MOSI: } (0x7D);  MISO: '133' (0x85)
0.030644080000000,SPI,MOSI: ( (0x28);  MISO: '133' (0x85)
0.030648600000000,SPI,MOSI: '12' (0x0C);  MISO: '133' (0x85)
0.030653120000000,SPI,MOSI: '0' (0x00);  MISO: '0' (0x00)
0.030657640000000,SPI,MOSI: '0' (0x00);  MISO: '0' (0x00)
0.030662160000000,SPI,MOSI: '0' (0x00);  MISO: '0' (0x00)
0.030666720000000,SPI,MOSI: '0' (0x00);  MISO: '0' (0x00)
0.030671240000000,SPI,MOSI: '0' (0x00);  MISO: '0' (0x00)
0.030675760000000,SPI,MOSI: '0' (0x00);  MISO: '0' (0x00)
0.030680280000000,SPI,MOSI: '7' (0x07);  MISO: '5' (0x05)
0.030704560000000,SPI,MOSI: '129' (0x81);  MISO: '151' (0x97)
0.030708240000000,SPI,MOSI: '144' (0x90);  MISO: '12' (0x0C)
0.030718720000000,SPI,MOSI: '137' (0x89);  MISO: } (0x7D)
0.030722440000000,SPI,MOSI: '0' (0x00);  MISO: '0' (0x00)
0.030732920000000,SPI,MOSI: '165' (0xA5);  MISO: } (0x7D)
0.030736600000000,SPI,MOSI: '134' (0x86);  MISO: '6' (0x06)
