Time [s], Analyzer Name, Decoded Protocol Result
0.000001800000000,SPI,MOSI: '129' (0x81);  MISO: } (0x7D)
0.000005480000000,SPI,MOSI: '12' (0x0C);  MISO: '0' (0x00)
0.000038000000000,SPI,MOSI: '184' (0xB8);  MISO: } (0x7D)
0.000041720000000,SPI,MOSI: '5' (0x05);  MISO: '5' (0x05)
0.000046240000000,SPI,MOSI: '0' (0x00);  MISO: '0' (0x00)
0.000050760000000,SPI,MOSI: '0' (0x00);  MISO: '0' (0x00)
0.000055280000000,SPI,MOSI: '0' (0x00);  MISO: '0' (0x00)
0.000059840000000,SPI,MOSI: '4' (0x04);  MISO: '4' (0x04)
0.000070880000000,SPI,MOSI: '128' (0x80);  MISO: } (0x7D)
0.000074600000000,SPI,MOSI: } (0x7D);  MISO: } (0x7D)
0.000079120000000,SPI,MOSI: ( (0x28);  MISO: } (0x7D)
0.000083640000000,SPI,MOSI: '12' (0x0C);  MISO: } (0x7D)
0.000088160000000,SPI,MOSI: \r (0x0D);  MISO: } (0x7D)
0.000092720000000,SPI,MOSI: '190' (0xBE);  MISO: } (0x7D)
0.000711120000000,SPI,MOSI: '135' (0x87);  MISO: '190' (0xBE)
0.000714800000000,SPI,MOSI: '230' (0xE6);  MISO: '227' (0xE3)
0.000719360000000,SPI,MOSI: ' ' (0x20);  MISO: @ (0x40)
0.000729840000000,SPI,MOSI: '174' (0xAE);  MISO: '0' (0x00)
0.000733520000000,SPI,MOSI: '136' (0x88);  MISO: '144' (0x90)
0.000738040000000,SPI,MOSI: } (0x7D);  MISO: '133' (0x85)
0.000742600000000,SPI,MOSI: ( (0x28);  MISO: '133' (0x85)
0.000747120000000,SPI,MOSI: '12' (0x0C);  MISO: '133' (0x85)
0.000751640000000,SPI,MOSI: '0' (0x00);  MISO: '0' (0x00)
0.000756160000000,SPI,MOSI: '0' (0x00);  MISO: '0' (0x00)
0.000760680000000,SPI,MOSI: '0' (0x00);  MISO: '0' (0x00)
0.000765240000000,SPI,MOSI: '0' (0x00);  MISO: '0' (0x00)
0.000769760000000,SPI,MOSI: '0' (0x00);  MISO: '0' (0x00)
0.000774280000000,SPI,MOSI: '0' (0x00);  MISO: '0' (0x00)
0.000778800000000,SPI,MOSI: '7' (0x07);  MISO: '5' (0x05)
0.000792280000000,SPI,MOSI: '129' (0x81);  MISO: '0' (0x00)
0.000796000000000,SPI,MOSI: '144' (0x90);  MISO: '12' (0x0C)
0.000806480000000,SPI,MOSI: '137' (0x89);  MISO: } (0x7D)
0.000810200000000,SPI,MOSI: '0' (0x00);  MISO: '0' (0x00)
0.000820680000000,SPI,MOSI: '165' (0xA5);  MISO: } (0x7D)
0.000824400000000,SPI,MOSI: '134' (0x86);  MISO: '6' (0x06)
0.009790480000000,SPI,MOSI: '129' (0x81);  MISO: } (0x7D)
0.009794200000000,SPI,MOSI: '0' (0x00);  MISO: '144' (0x90)
0.009798720000000,SPI,MOSI: '0' (0x00);  MISO: '0' (0x00)
0.009803240000000,SPI,MOSI: '0' (0x00);  MISO: '0' (0x00)
0.009807760000000,SPI,MOSI: '210' (0xD2);  MISO: '210' (0xD2)
0.009812320000000,SPI,MOSI: '14' (0x0E);  MISO: '14' (0x0E)
0.009816840000000,SPI,MOSI: E (0x45);  MISO: E (0x45)
0.009821360000000,SPI,MOSI: '227' (0xE3);  MISO: '230' (0xE6)
0.009825880000000,SPI,MOSI: @ (0x40);  MISO: ' ' (0x20)
0.009830440000000,SPI,MOSI: '0' (0x00);  MISO: '0' (0x00)
0.009840920000000,SPI,MOSI: '165' (0xA5);  MISO: } (0x7D)
0.009844600000000,SPI,MOSI: '6' (0x06);  MISO: '134' (0x86)
0.009855080000000,SPI,MOSI: '174' (0xAE);  MISO: } (0x7D)
0.009858800000000,SPI,MOSI: '144' (0x90);  MISO: '136' (0x88)
0.009863320000000,SPI,MOSI: '133' (0x85);  MISO: } (0x7D)
0.009867840000000,SPI,MOSI: '133' (0x85);  MISO: ( (0x28)
0.009872360000000,SPI,MOSI: '133' (0x85);  MISO: '12' (0x0C)
0.009876880000000,SPI,MOSI: '0' (0x00);  MISO: '0' (0x00)
0.009881400000000,SPI,MOSI: '0' (0x00);  MISO: '0' (0x00)
0.009885960000000,SPI,MOSI: '0' (0x00);  MISO: '0' (0x00)
0.009890480000000,SPI,MOSI: '0' (0x00);  MISO: '0' (0x00)
0.009895000000000,SPI,MOSI: '0' (0x00);  MISO: '0' (0x00)
0.009899520000000,SPI,MOSI: '0' (0x00);  MISO: '0' (0x00)
0.009904040000000,SPI,MOSI: '5' (0x05);  MISO: '7' (0x07)
0.019829280000000,SPI,MOSI: '129' (0x81);  MISO: } (0x7D)
0.019832960000000,SPI,MOSI: '12' (0x0C);  MISO: '0' (0x00)
0.019865520000000,SPI,MOSI: '184' (0xB8);  MISO: } (0x7D)
0.019869200000000,SPI,MOSI: '5' (0x05);  MISO: '5' (0x05)
0.019873720000000,SPI,MOSI: '0' (0x00);  MISO: '0' (0x00)
0.019878240000000,SPI,MOSI: '0' (0x00);  MISO: '0' (0x00)
0.019882800000000,SPI,MOSI: '0' (0x00);  MISO: '0' (0x00)
0.019887320000000,SPI,MOSI: '4' (0x04);  MISO: '4' (0x04)
0.019898400000000,SPI,MOSI: '128' (0x80);  MISO: } (0x7D)
0.019902120000000,SPI,MOSI: } (0x7D);  MISO: } (0x7D)
0.019906640000000,SPI,MOSI: ( (0x28);  MISO: } (0x7D)
0.019911200000000,SPI,MOSI: '12' (0x0C);  MISO: } (0x7D)
0.019915720000000,SPI,MOSI: \r (0x0D);  MISO: } (0x7D)
0.019920240000000,SPI,MOSI: '190' (0xBE);  MISO: } (0x7D)
0.020538520000000,SPI,MOSI: '135' (0x87);  MISO: '190' (0xBE)
0.020542200000000,SPI,MOSI: '230' (0xE6);  MISO: '227' (0xE3)
0.020546720000000,SPI,MOSI: ' ' (0x20);  MISO: @ (0x40)
0.020557200000000,SPI,MOSI: '174' (0xAE);  MISO: '0' (0x00)
0.020560920000000,SPI,MOSI: '136' (0x88);  MISO: '144' (0x90)
0.020565440000000,SPI,MOSI: } (0x7D);  MISO: '133' (0x85)
0.020569960000000,SPI,MOSI: ( (0x28);  MISO: '133' (0x85)
0.020574480000000,SPI,MOSI: '12' (0x0C);  MISO: '133' (0x85)
0.020579000000000,SPI,MOSI: '0' (0x00);  MISO: '0' (0x00)
0.020583560000000,SPI,MOSI: '0' (0x00);  MISO: '0' (0x00)
0.020588080000000,SPI,MOSI: '0' (0x00);  MISO: '0' (0x00)
0.020592600000000,SPI,MOSI: '0' (0x00);  MISO: '0' (0x00)
0.020597120000000,SPI,MOSI: '0' (0x00);  MISO: '0' (0x00)
0.020601640000000,SPI,MOSI: '0' (0x00);  MISO: '0' (0x00)
0.020606200000000,SPI,MOSI: '7' (0x07);  MISO: '5' (0x05)
0.020619680000000,SPI,MOSI: '129' (0x81);  MISO: '0' (0x00)
0.020623360000000,SPI,MOSI: '144' (0x90);  MISO: '12' (0x0C)
0.020633880000000,SPI,MOSI: '137' (0x89);  MISO: } (0x7D)
0.020637560000000,SPI,MOSI: '0' (0x00);  MISO: '0' (0x00)
0.020648080000000,SPI,MOSI: '165' (0xA5);  MISO: } (0x7D)
0.020651760000000,SPI,MOSI: '134' (0x86);  MISO: '6' (0x06)
