Time [s], Analyzer Name, Decoded Protocol Result
0.000001800000000,SPI,MOSI: '129' (0x81);  MISO: } (0x7D)
0.000005480000000,SPI,MOSI: '12' (0x0C);  MISO: '0' (0x00)
0.000038000000000,SPI,MOSI: '184' (0xB8);  MISO: } (0x7D)
0.000041720000000,SPI,MOSI: '5' (0x05);  MISO: '5' (0x05)
0.000046240000000,SPI,MOSI: '0' (0x00);  MISO: '0' (0x00)
0.000050760000000,SPI,MOSI: '0' (0x00);  MISO: '0' (0x00)
0.000055280000000,SPI,MOSI: '0' (0x00);  MISO: '0' (0x00)
0.000059800000000,SPI,MOSI: '4' (0x04);  MISO: '4' (0x04)
0.000070880000000,SPI,MOSI: '128' (0x80);  MISO: } (0x7D)
0.000074560000000,SPI,MOSI: } (0x7D);  MISO: } (0x7D)
0.000079120000000,SPI,MOSI: ( (0x28);  MISO: } (0x7D)
0.000083640000000,SPI,MOSI: '12' (0x0C);  MISO: } (0x7D)
0.000088160000000,SPI,MOSI: '1' (0x01);  MISO: } (0x7D)
0.000092680000000,SPI,MOSI: '178' (0xB2);  MISO: } (0x7D)
0.000710960000000,SPI,MOSI: '135' (0x87);  MISO: '178' (0xB2)
0.000714640000000,SPI,MOSI: '230' (0xE6);  MISO: '227' (0xE3)
0.000719160000000,SPI,MOSI: ' ' (0x20);  MISO: @ (0x40)
0.000729640000000,SPI,MOSI: '174' (0xAE);  MISO: '0' (0x00)
0.000733360000000,SPI,MOSI: '136' (0x88);  MISO: '144' (0x90)
0.000737880000000,SPI,MOSI: } (0x7D);  MISO: '133' (0x85)
0.000742400000000,SPI,MOSI: ( (0x28);  MISO: '133' (0x85)
0.000746920000000,SPI,MOSI: '12' (0x0C);  MISO: '133' (0x85)
0.000751440000000,SPI,MOSI: '0' (0x00);  MISO: '0' (0x00)
0.000755960000000,SPI,MOSI: '0' (0x00);  MISO: '0' (0x00)
0.000760520000000,SPI,MOSI: '0' (0x00);  MISO: '0' (0x00)
0.000765040000000,SPI,MOSI: '0' (0x00);  MISO: '0' (0x00)
0.000769560000000,SPI,MOSI: '0' (0x00);  MISO: '0' (0x00)
0.000774080000000,SPI,MOSI: '0' (0x00);  MISO: '0' (0x00)
0.000778640000000,SPI,MOSI: '7' (0x07);  MISO: '5' (0x05)
0.000792120000000,SPI,MOSI: '129' (0x81);  MISO: '0' (0x00)
0.000795800000000,SPI,MOSI: '144' (0x90);  MISO: '12' (0x0C)
0.000806320000000,SPI,MOSI: '137' (0x89);  MISO: } (0x7D)
0.000810040000000,SPI,MOSI: '0' (0x00);  MISO: '0' (0x00)
0.000820520000000,SPI,MOSI: '165' (0xA5);  MISO: } (0x7D)
0.000824240000000,SPI,MOSI: '134' (0x86);  MISO: '6' (0x06)
0.009790280000000,SPI,MOSI: '129' (0x81);  MISO: } (0x7D)
0.009793960000000,SPI,MOSI: '0' (0x00);  MISO: '144' (0x90)
0.009798480000000,SPI,MOSI: '0' (0x00);  MISO: '0' (0x00)
0.009803040000000,SPI,MOSI: '0' (0x00);  MISO: '0' (0x00)
0.009807560000000,SPI,MOSI: '210' (0xD2);  MISO: '210' (0xD2)
0.009812080000000,SPI,MOSI: '14' (0x0E);  MISO: '14' (0x0E)
0.009816600000000,SPI,MOSI: E (0x45);  MISO: E (0x45)
0.009821120000000,SPI,MOSI: '227' (0xE3);  MISO: '230' (0xE6)
0.009825680000000,SPI,MOSI: @ (0x40);  MISO: ' ' (0x20)
0.009830200000000,SPI,MOSI: '0' (0x00);  MISO: '0' (0x00)
0.009840680000000,SPI,MOSI: '165' (0xA5);  MISO: } (0x7D)
0.009844360000000,SPI,MOSI: '6' (0x06);  MISO: '134' (0x86)
0.009854840000000,SPI,MOSI: '174' (0xAE);  MISO: } (0x7D)
0.009858560000000,SPI,MOSI: '144' (0x90);  MISO: '136' (0x88)
0.009863080000000,SPI,MOSI: '133' (0x85);  MISO: } (0x7D)
0.009867600000000,SPI,MOSI: '133' (0x85);  MISO: ( (0x28)
0.009872120000000,SPI,MOSI: '133' (0x85);  MISO: '12' (0x0C)
0.009876680000000,SPI,MOSI: '0' (0x00);  MISO: '0' (0x00)
0.009881200000000,SPI,MOSI: '0' (0x00);  MISO: '0' (0x00)
0.009885720000000,SPI,MOSI: '0' (0x00);  MISO: '0' (0x00)
0.009890240000000,SPI,MOSI: '0' (0x00);  MISO: '0' (0x00)
0.009894760000000,SPI,MOSI: '0' (0x00);  MISO: '0' (0x00)
0.009899320000000,SPI,MOSI: '0' (0x00);  MISO: '0' (0x00)
0.009903840000000,SPI,MOSI: '5' (0x05);  MISO: '7' (0x07)
0.019829320000000,SPI,MOSI: '129' (0x81);  MISO: } (0x7D)
0.019833040000000,SPI,MOSI: '12' (0x0C);  MISO: '0' (0x00)
0.019865600000000,SPI,MOSI: '184' (0xB8);  MISO: } (0x7D)
0.019869280000000,SPI,MOSI: '5' (0x05);  MISO: '5' (0x05)
0.019873800000000,SPI,MOSI: '0' (0x00);  MISO: '0' (0x00)
0.019878320000000,SPI,MOSI: '0' (0x00);  MISO: '0' (0x00)
0.019882880000000,SPI,MOSI: '0' (0x00);  MISO: '0' (0x00)
0.019887400000000,SPI,MOSI: '4' (0x04);  MISO: '4' (0x04)
0.019898480000000,SPI,MOSI: '128' (0x80);  MISO: } (0x7D)
0.019902160000000,SPI,MOSI: } (0x7D);  MISO: } (0x7D)
0.019906680000000,SPI,MOSI: ( (0x28);  MISO: } (0x7D)
0.019911240000000,SPI,MOSI: '12' (0x0C);  MISO: } (0x7D)
0.019915760000000,SPI,MOSI: '1' (0x01);  MISO: } (0x7D)
0.019920280000000,SPI,MOSI: '178' (0xB2);  MISO: } (0x7D)
0.020538720000000,SPI,MOSI: '135' (0x87);  MISO: '178' (0xB2)
0.020542440000000,SPI,MOSI: '230' (0xE6);  MISO: '227' (0xE3)
0.020546960000000,SPI,MOSI: ' ' (0x20);  MISO: @ (0x40)
0.020557440000000,SPI,MOSI: '174' (0xAE);  MISO: '0' (0x00)
0.020561160000000,SPI,MOSI: '136' (0x88);  MISO: '144' (0x90)
0.020565680000000,SPI,MOSI: } (0x7D);  MISO: '133' (0x85)
0.020570200000000,SPI,MOSI: ( (0x28);  MISO: '133' (0x85)
0.020574720000000,SPI,MOSI: '12' (0x0C);  MISO: '133' (0x85)
0.020579240000000,SPI,MOSI: '0' (0x00);  MISO: '0' (0x00)
0.020583800000000,SPI,MOSI: '0' (0x00);  MISO: '0' (0x00)
0.020588320000000,SPI,MOSI: '0' (0x00);  MISO: '0' (0x00)
0.020592840000000,SPI,MOSI: '0' (0x00);  MISO: '0' (0x00)
0.020597360000000,SPI,MOSI: '0' (0x00);  MISO: '0' (0x00)
0.020601880000000,SPI,MOSI: '0' (0x00);  MISO: '0' (0x00)
0.020606400000000,SPI,MOSI: '7' (0x07);  MISO: '5' (0x05)
0.020619880000000,SPI,MOSI: '129' (0x81);  MISO: '0' (0x00)
0.020623560000000,SPI,MOSI: '144' (0x90);  MISO: '12' (0x0C)
0.020634040000000,SPI,MOSI: '137' (0x89);  MISO: } (0x7D)
0.020637760000000,SPI,MOSI: '0' (0x00);  MISO: '0' (0x00)
0.020648240000000,SPI,MOSI: '165' (0xA5);  MISO: } (0x7D)
0.020651920000000,SPI,MOSI: '134' (0x86);  MISO: '6' (0x06)
