Time [s], Analyzer Name, Decoded Protocol Result
0.000001800000000,SPI,MOSI: '129' (0x81);  MISO: } (0x7D)
0.000005480000000,SPI,MOSI: '12' (0x0C);  MISO: '0' (0x00)
0.000038080000000,SPI,MOSI: '184' (0xB8);  MISO: } (0x7D)
0.000041760000000,SPI,MOSI: '5' (0x05);  MISO: '5' (0x05)
0.000046320000000,SPI,MOSI: '0' (0x00);  MISO: '0' (0x00)
0.000050840000000,SPI,MOSI: '0' (0x00);  MISO: '0' (0x00)
0.000055360000000,SPI,MOSI: '0' (0x00);  MISO: '0' (0x00)
0.000059920000000,SPI,MOSI: '4' (0x04);  MISO: '4' (0x04)
0.000071000000000,SPI,MOSI: '128' (0x80);  MISO: } (0x7D)
0.000074720000000,SPI,MOSI: } (0x7D);  MISO: } (0x7D)
0.000079240000000,SPI,MOSI: ( (0x28);  MISO: } (0x7D)
0.000083800000000,SPI,MOSI: '12' (0x0C);  MISO: } (0x7D)
0.000088320000000,SPI,MOSI: '14' (0x0E);  MISO: } (0x7D)
0.000092840000000,SPI,MOSI: '191' (0xBF);  MISO: } (0x7D)
0.000711480000000,SPI,MOSI: '135' (0x87);  MISO: '191' (0xBF)
0.000715200000000,SPI,MOSI: '230' (0xE6);  MISO: '227' (0xE3)
0.000719720000000,SPI,MOSI: ' ' (0x20);  MISO: @ (0x40)
0.000730240000000,SPI,MOSI: '174' (0xAE);  MISO: '0' (0x00)
0.000733920000000,SPI,MOSI: '136' (0x88);  MISO: '144' (0x90)
0.000738440000000,SPI,MOSI: } (0x7D);  MISO: '133' (0x85)
0.000743000000000,SPI,MOSI: ( (0x28);  MISO: '133' (0x85)
0.000747520000000,SPI,MOSI: '12' (0x0C);  MISO: '133' (0x85)
0.000752040000000,SPI,MOSI: '0' (0x00);  MISO: '0' (0x00)
0.000756600000000,SPI,MOSI: '0' (0x00);  MISO: '0' (0x00)
0.000761120000000,SPI,MOSI: '0' (0x00);  MISO: '0' (0x00)
0.000765680000000,SPI,MOSI: '0' (0x00);  MISO: '0' (0x00)
0.000770200000000,SPI,MOSI: '0' (0x00);  MISO: '0' (0x00)
0.000774720000000,SPI,MOSI: '0' (0x00);  MISO: '0' (0x00)
0.000779280000000,SPI,MOSI: '7' (0x07);  MISO: '5' (0x05)
0.000792760000000,SPI,MOSI: '129' (0x81);  MISO: '0' (0x00)
0.000796440000000,SPI,MOSI: '144' (0x90);  MISO: '12' (0x0C)
0.000806920000000,SPI,MOSI: '137' (0x89);  MISO: } (0x7D)
0.000810640000000,SPI,MOSI: '0' (0x00);  MISO: '0' (0x00)
0.000821120000000,SPI,MOSI: '165' (0xA5);  MISO: } (0x7D)
0.000824840000000,SPI,MOSI: '134' (0x86);  MISO: '6' (0x06)
